# vsim -vopt work.top -voptargs="+acc=npr" -assertdebug -l simulation.log -coverage -c -do "coverage save -onexit -assert -directive -cvg -codeAll coverage.ucdb; run -all; exit" 
# Start time: 14:23:18 on Jul 22,2026
# ** Note: (vsim-3813) Design is being optimized due to module recompilation...
# //  Questa Sim
# //  Version 10.6c linux Jul 25 2017
# //
# //  Copyright 1991-2017 Mentor Graphics Corporation
# //  All Rights Reserved.
# //
# //  QuestaSim and its associated documentation contain trade
# //  secrets and commercial or financial information that are the property of
# //  Mentor Graphics Corporation and are privileged, confidential,
# //  and exempt from disclosure under the Freedom of Information Act,
# //  5 U.S.C. Section 552. Furthermore, this information
# //  is prohibited from disclosure under the Trade Secrets Act,
# //  18 U.S.C. Section 1905.
# //
# Loading sv_std.std
# Loading work.apb_if(fast)
# Loading work.apb_pkg(fast)
# Loading work.top(fast)
# Loading work.apb_if(fast)
# Loading work.apb_master(fast)
# ** Warning: (vsim-8441) apb_driver.sv(54): Clocking block output vif.drv_cb.PRDATA is not legal in this
# or another expression.
#    Time: 0 ns  Iteration: 0  Region: /apb_pkg File: apb_package.sv
# ** Warning: (vsim-8441) apb_driver.sv(55): Clocking block output vif.drv_cb.PREADY is not legal in this
# or another expression.
#    Time: 0 ns  Iteration: 0  Region: /apb_pkg File: apb_package.sv
# ** Warning: (vsim-8441) apb_driver.sv(56): Clocking block output vif.drv_cb.PSLVERR is not legal in this
# or another expression.
#    Time: 0 ns  Iteration: 0  Region: /apb_pkg File: apb_package.sv
# ** Warning: (vsim-8441) apb_driver.sv(52): Clocking block output vif.drv_cb.addr_in is not legal in this
# or another expression.
#    Time: 0 ns  Iteration: 0  Region: /apb_pkg File: apb_package.sv
# ** Warning: (vsim-8441) apb_driver.sv(58): Clocking block output vif.drv_cb.strb_in is not legal in this
# or another expression.
#    Time: 0 ns  Iteration: 0  Region: /apb_pkg File: apb_package.sv
# ** Warning: (vsim-8441) apb_driver.sv(53): Clocking block output vif.drv_cb.transfer is not legal in this
# or another expression.
#    Time: 0 ns  Iteration: 0  Region: /apb_pkg File: apb_package.sv
# ** Warning: (vsim-8441) apb_driver.sv(51): Clocking block output vif.drv_cb.wdata_in is not legal in this
# or another expression.
#    Time: 0 ns  Iteration: 0  Region: /apb_pkg File: apb_package.sv
# ** Warning: (vsim-8441) apb_driver.sv(57): Clocking block output vif.drv_cb.write_read is not legal in this
# or another expression.
#    Time: 0 ns  Iteration: 0  Region: /apb_pkg File: apb_package.sv
# ** Warning: (vsim-8441) apb_driver.sv(54): Clocking block output vif.drv_cb.PRDATA is not legal in this
# or another expression.
#    Time: 0 ns  Iteration: 0  Region: /apb_pkg File: apb_package.sv
# ** Warning: (vsim-8441) apb_driver.sv(56): Clocking block output vif.drv_cb.PSLVERR is not legal in this
# or another expression.
#    Time: 0 ns  Iteration: 0  Region: /apb_pkg File: apb_package.sv
# ** Warning: (vsim-8441) apb_driver.sv(55): Clocking block output vif.drv_cb.PREADY is not legal in this
# or another expression.
#    Time: 0 ns  Iteration: 0  Region: /apb_pkg File: apb_package.sv
# ** Warning: (vsim-8441) apb_driver.sv(58): Clocking block output vif.drv_cb.strb_in is not legal in this
# or another expression.
#    Time: 0 ns  Iteration: 0  Region: /apb_pkg File: apb_package.sv
# ** Warning: (vsim-8441) apb_driver.sv(57): Clocking block output vif.drv_cb.write_read is not legal in this
# or another expression.
#    Time: 0 ns  Iteration: 0  Region: /apb_pkg File: apb_package.sv
# ** Warning: (vsim-8441) apb_driver.sv(52): Clocking block output vif.drv_cb.addr_in is not legal in this
# or another expression.
#    Time: 0 ns  Iteration: 0  Region: /apb_pkg File: apb_package.sv
# ** Warning: (vsim-8441) apb_driver.sv(51): Clocking block output vif.drv_cb.wdata_in is not legal in this
# or another expression.
#    Time: 0 ns  Iteration: 0  Region: /apb_pkg File: apb_package.sv
# ** Warning: (vsim-8441) apb_driver.sv(53): Clocking block output vif.drv_cb.transfer is not legal in this
# or another expression.
#    Time: 0 ns  Iteration: 0  Region: /apb_pkg File: apb_package.sv
# ** Warning: (vsim-8441) apb_driver.sv(54): Clocking block output vif.drv_cb.PRDATA is not legal in this
# or another expression.
#    Time: 0 ns  Iteration: 0  Region: /apb_pkg File: apb_package.sv
# ** Warning: (vsim-8441) apb_driver.sv(56): Clocking block output vif.drv_cb.PSLVERR is not legal in this
# or another expression.
#    Time: 0 ns  Iteration: 0  Region: /apb_pkg File: apb_package.sv
# ** Warning: (vsim-8441) apb_driver.sv(55): Clocking block output vif.drv_cb.PREADY is not legal in this
# or another expression.
#    Time: 0 ns  Iteration: 0  Region: /apb_pkg File: apb_package.sv
# ** Warning: (vsim-8441) apb_driver.sv(58): Clocking block output vif.drv_cb.strb_in is not legal in this
# or another expression.
#    Time: 0 ns  Iteration: 0  Region: /apb_pkg File: apb_package.sv
# ** Warning: (vsim-8441) apb_driver.sv(57): Clocking block output vif.drv_cb.write_read is not legal in this
# or another expression.
#    Time: 0 ns  Iteration: 0  Region: /apb_pkg File: apb_package.sv
# ** Warning: (vsim-8441) apb_driver.sv(52): Clocking block output vif.drv_cb.addr_in is not legal in this
# or another expression.
#    Time: 0 ns  Iteration: 0  Region: /apb_pkg File: apb_package.sv
# ** Warning: (vsim-8441) apb_driver.sv(51): Clocking block output vif.drv_cb.wdata_in is not legal in this
# or another expression.
#    Time: 0 ns  Iteration: 0  Region: /apb_pkg File: apb_package.sv
# ** Warning: (vsim-8441) apb_driver.sv(53): Clocking block output vif.drv_cb.transfer is not legal in this
# or another expression.
#    Time: 0 ns  Iteration: 0  Region: /apb_pkg File: apb_package.sv
# ** Warning: (vsim-8441) apb_driver.sv(58): Clocking block output vif.drv_cb.strb_in is not legal in this
# or another expression.
#    Time: 0 ns  Iteration: 0  Region: /apb_pkg File: apb_package.sv
# ** Warning: (vsim-8441) apb_driver.sv(57): Clocking block output vif.drv_cb.write_read is not legal in this
# or another expression.
#    Time: 0 ns  Iteration: 0  Region: /apb_pkg File: apb_package.sv
# ** Warning: (vsim-8441) apb_driver.sv(56): Clocking block output vif.drv_cb.PSLVERR is not legal in this
# or another expression.
#    Time: 0 ns  Iteration: 0  Region: /apb_pkg File: apb_package.sv
# ** Warning: (vsim-8441) apb_driver.sv(55): Clocking block output vif.drv_cb.PREADY is not legal in this
# or another expression.
#    Time: 0 ns  Iteration: 0  Region: /apb_pkg File: apb_package.sv
# ** Warning: (vsim-8441) apb_driver.sv(54): Clocking block output vif.drv_cb.PRDATA is not legal in this
# or another expression.
#    Time: 0 ns  Iteration: 0  Region: /apb_pkg File: apb_package.sv
# ** Warning: (vsim-8441) apb_driver.sv(53): Clocking block output vif.drv_cb.transfer is not legal in this
# or another expression.
#    Time: 0 ns  Iteration: 0  Region: /apb_pkg File: apb_package.sv
# ** Warning: (vsim-8441) apb_driver.sv(52): Clocking block output vif.drv_cb.addr_in is not legal in this
# or another expression.
#    Time: 0 ns  Iteration: 0  Region: /apb_pkg File: apb_package.sv
# ** Warning: (vsim-8441) apb_driver.sv(51): Clocking block output vif.drv_cb.wdata_in is not legal in this
# or another expression.
#    Time: 0 ns  Iteration: 0  Region: /apb_pkg File: apb_package.sv
# coverage save -onexit -assert -directive -cvg -codeAll coverage.ucdb
#  run -all
# generator: :  transfer=0 | pready =0  | write_read =1 | wdata_in =       140 | addr_in =146 |  strb = 1 |  pslverr=1 | prdata =       210   
# generator: :  transfer=0 | pready =0  | write_read =1 | wdata_in =       231 | addr_in =245 |  strb = 0 |  pslverr=0 | prdata =       112   
# generator: :  transfer=0 | pready =0  | write_read =1 | wdata_in =       142 | addr_in =171 |  strb = 8 |  pslverr=0 | prdata =        43   
# generator: :  transfer=1 | pready =0  | write_read =1 | wdata_in =       153 | addr_in =114 |  strb = 4 |  pslverr=1 | prdata =       153   
# generator: :  transfer=1 | pready =0  | write_read =1 | wdata_in =       153 | addr_in =114 |  strb = 1 |  pslverr=0 | prdata =       136   
# generator: :  transfer=1 | pready =0  | write_read =1 | wdata_in =       153 | addr_in =114 |  strb = 9 |  pslverr=0 | prdata =        75   
# generator: :  transfer=1 | pready =1  | write_read =1 | wdata_in =       153 | addr_in =114 |  strb = 2 |  pslverr=1 | prdata =       248   
# generator: :  transfer=1 | pready =1  | write_read =1 | wdata_in =       127 | addr_in = 30 |  strb =13 |  pslverr=1 | prdata =        21   
# generator: :  transfer=1 | pready =1  | write_read =1 | wdata_in =       164 | addr_in = 61 |  strb = 0 |  pslverr=0 | prdata =       134   
# generator: :  transfer=0 | pready =1  | write_read =1 | wdata_in =        33 | addr_in =198 |  strb = 6 |  pslverr=1 | prdata =        97   
# generator: :  transfer=0 | pready =0  | write_read =1 | wdata_in =        15 | addr_in =239 |  strb = 8 |  pslverr=1 | prdata =        52   
# generator: :  transfer=1 | pready =0  | write_read =1 | wdata_in =       194 | addr_in =204 |  strb =15 |  pslverr=0 | prdata =        90   
# generator: :  transfer=1 | pready =1  | write_read =1 | wdata_in =       194 | addr_in =204 |  strb = 6 |  pslverr=0 | prdata =       169   
# generator: :  transfer=0 | pready =0  | write_read =1 | wdata_in =        52 | addr_in =220 |  strb = 0 |  pslverr=0 | prdata =        21   
# generator: :  transfer=0 | pready =0  | write_read =1 | wdata_in =        14 | addr_in =235 |  strb =11 |  pslverr=1 | prdata =       130   
# generator: :  transfer=0 | pready =0  | write_read =1 | wdata_in =       231 | addr_in =249 |  strb = 4 |  pslverr=1 | prdata =       167   
# generator: :  transfer=0 | pready =1  | write_read =1 | wdata_in =        27 | addr_in =182 |  strb = 7 |  pslverr=1 | prdata =        92   
# generator: :  transfer=0 | pready =0  | write_read =1 | wdata_in =       208 | addr_in = 38 |  strb = 2 |  pslverr=1 | prdata =       169   
# generator: :  transfer=0 | pready =1  | write_read =1 | wdata_in =       180 | addr_in = 22 |  strb = 1 |  pslverr=1 | prdata =       236   
# generator: :  transfer=0 | pready =1  | write_read =1 | wdata_in =       139 | addr_in = 53 |  strb = 7 |  pslverr=0 | prdata =        16   
# generator: :  transfer=0 | pready =1  | write_read =1 | wdata_in =       115 | addr_in = 15 |  strb =14 |  pslverr=0 | prdata =       208   
# generator: :  transfer=0 | pready =1  | write_read =1 | wdata_in =       112 | addr_in = 98 |  strb =15 |  pslverr=0 | prdata =       165   
# generator: :  transfer=0 | pready =0  | write_read =1 | wdata_in =       134 | addr_in = 67 |  strb =15 |  pslverr=1 | prdata =       206   
# generator: :  transfer=0 | pready =1  | write_read =1 | wdata_in =       228 | addr_in =158 |  strb = 4 |  pslverr=0 | prdata =       187   
# generator: :  transfer=0 | pready =1  | write_read =1 | wdata_in =        56 | addr_in = 98 |  strb = 3 |  pslverr=1 | prdata =       103   
# generator: :  transfer=0 | pready =1  | write_read =1 | wdata_in =       178 | addr_in = 34 |  strb = 5 |  pslverr=1 | prdata =        95   
# generator: :  transfer=0 | pready =1  | write_read =1 | wdata_in =         0 | addr_in =102 |  strb =15 |  pslverr=1 | prdata =        72   
# generator: :  transfer=0 | pready =1  | write_read =1 | wdata_in =        25 | addr_in =131 |  strb = 0 |  pslverr=1 | prdata =        52   
# generator: :  transfer=0 | pready =0  | write_read =1 | wdata_in =       135 | addr_in =181 |  strb = 5 |  pslverr=1 | prdata =       219   
# generator: :  transfer=0 | pready =0  | write_read =1 | wdata_in =       158 | addr_in =108 |  strb =12 |  pslverr=1 | prdata =       176   
# generator: :  transfer=0 | pready =1  | write_read =1 | wdata_in =       237 | addr_in = 78 |  strb = 2 |  pslverr=1 | prdata =        23   
# generator: :  transfer=0 | pready =1  | write_read =1 | wdata_in =       122 | addr_in = 73 |  strb = 3 |  pslverr=0 | prdata =        80   
# generator: :  transfer=0 | pready =1  | write_read =1 | wdata_in =        14 | addr_in =201 |  strb =12 |  pslverr=0 | prdata =       143   
# generator: :  transfer=0 | pready =1  | write_read =1 | wdata_in =       248 | addr_in =235 |  strb =15 |  pslverr=1 | prdata =       157   
# generator: :  transfer=0 | pready =0  | write_read =1 | wdata_in =       252 | addr_in = 29 |  strb = 4 |  pslverr=1 | prdata =       173   
# generator: :  transfer=0 | pready =0  | write_read =1 | wdata_in =        13 | addr_in =117 |  strb = 9 |  pslverr=0 | prdata =        80   
# generator: :  transfer=0 | pready =0  | write_read =1 | wdata_in =       227 | addr_in =  3 |  strb =14 |  pslverr=0 | prdata =       255   
# generator: :  transfer=0 | pready =0  | write_read =1 | wdata_in =       250 | addr_in =148 |  strb = 8 |  pslverr=0 | prdata =       135   
# generator: :  transfer=0 | pready =0  | write_read =1 | wdata_in =        80 | addr_in =240 |  strb =12 |  pslverr=0 | prdata =       235   
# generator: :  transfer=0 | pready =0  | write_read =1 | wdata_in =       198 | addr_in =170 |  strb = 2 |  pslverr=0 | prdata =       141   
# generator: :  transfer=0 | pready =0  | write_read =1 | wdata_in =       252 | addr_in =224 |  strb = 8 |  pslverr=0 | prdata =       195   
# generator: :  transfer=0 | pready =1  | write_read =1 | wdata_in =       252 | addr_in = 48 |  strb = 6 |  pslverr=1 | prdata =       178   
# generator: :  transfer=0 | pready =0  | write_read =1 | wdata_in =       140 | addr_in =228 |  strb = 3 |  pslverr=1 | prdata =         6   
# generator: :  transfer=0 | pready =0  | write_read =1 | wdata_in =       123 | addr_in = 15 |  strb =14 |  pslverr=1 | prdata =       129   
# generator: :  transfer=0 | pready =0  | write_read =1 | wdata_in =       238 | addr_in = 40 |  strb =13 |  pslverr=0 | prdata =        38   
# generator: :  transfer=0 | pready =1  | write_read =1 | wdata_in =       187 | addr_in =  8 |  strb = 6 |  pslverr=1 | prdata =       140   
# generator: :  transfer=0 | pready =0  | write_read =1 | wdata_in =       215 | addr_in =188 |  strb = 2 |  pslverr=1 | prdata =       254   
# generator: :  transfer=0 | pready =0  | write_read =1 | wdata_in =        31 | addr_in = 27 |  strb = 3 |  pslverr=0 | prdata =        91   
# generator: :  transfer=0 | pready =1  | write_read =1 | wdata_in =       184 | addr_in = 35 |  strb = 0 |  pslverr=0 | prdata =       134   
# generator: :  transfer=0 | pready =1  | write_read =1 | wdata_in =       234 | addr_in = 66 |  strb = 7 |  pslverr=0 | prdata =        44   
# generator: :  transfer=0 | pready =0  | write_read =1 | wdata_in =       184 | addr_in = 48 |  strb = 5 |  pslverr=0 | prdata =       135   
# generator: :  transfer=0 | pready =1  | write_read =1 | wdata_in =        54 | addr_in = 64 |  strb = 4 |  pslverr=1 | prdata =        29   
# generator: :  transfer=0 | pready =0  | write_read =1 | wdata_in =        26 | addr_in =193 |  strb =13 |  pslverr=0 | prdata =        32   
# generator: :  transfer=0 | pready =0  | write_read =1 | wdata_in =       156 | addr_in =168 |  strb = 1 |  pslverr=1 | prdata =       158   
# generator: :  transfer=0 | pready =1  | write_read =1 | wdata_in =       194 | addr_in =166 |  strb = 2 |  pslverr=1 | prdata =        32   
# generator: :  transfer=0 | pready =0  | write_read =1 | wdata_in =       244 | addr_in = 16 |  strb = 5 |  pslverr=1 | prdata =       184   
# generator: :  transfer=0 | pready =1  | write_read =1 | wdata_in =       148 | addr_in =  2 |  strb = 2 |  pslverr=0 | prdata =        50   
# generator: :  transfer=0 | pready =1  | write_read =1 | wdata_in =       111 | addr_in =114 |  strb = 4 |  pslverr=0 | prdata =        66   
# generator: :  transfer=0 | pready =0  | write_read =1 | wdata_in =         2 | addr_in =104 |  strb = 3 |  pslverr=0 | prdata =       115   
# generator: :  transfer=0 | pready =0  | write_read =1 | wdata_in =       103 | addr_in =211 |  strb =12 |  pslverr=1 | prdata =       100   
# generator: :  transfer=0 | pready =1  | write_read =1 | wdata_in =       247 | addr_in =178 |  strb = 6 |  pslverr=0 | prdata =        74   
# generator: :  transfer=0 | pready =1  | write_read =1 | wdata_in =        43 | addr_in =219 |  strb = 6 |  pslverr=0 | prdata =        11   
# generator: :  transfer=0 | pready =0  | write_read =1 | wdata_in =       194 | addr_in =107 |  strb = 3 |  pslverr=0 | prdata =       157   
# generator: :  transfer=0 | pready =1  | write_read =1 | wdata_in =       196 | addr_in = 36 |  strb = 7 |  pslverr=1 | prdata =       191   
# generator: :  transfer=0 | pready =1  | write_read =1 | wdata_in =       200 | addr_in = 91 |  strb = 3 |  pslverr=1 | prdata =       172   
# generator: :  transfer=0 | pready =0  | write_read =1 | wdata_in =        17 | addr_in =129 |  strb = 2 |  pslverr=0 | prdata =       191   
# generator: :  transfer=0 | pready =0  | write_read =1 | wdata_in =       236 | addr_in = 32 |  strb = 5 |  pslverr=1 | prdata =        17   
# generator: :  transfer=0 | pready =0  | write_read =1 | wdata_in =       176 | addr_in =193 |  strb =13 |  pslverr=1 | prdata =        60   
# generator: :  transfer=0 | pready =1  | write_read =1 | wdata_in =       194 | addr_in = 90 |  strb =14 |  pslverr=0 | prdata =       126   
# generator: :  transfer=0 | pready =1  | write_read =1 | wdata_in =       213 | addr_in =  3 |  strb = 9 |  pslverr=0 | prdata =       158   
# generator: :  transfer=0 | pready =1  | write_read =1 | wdata_in =       140 | addr_in = 41 |  strb = 0 |  pslverr=0 | prdata =       215   
# generator: :  transfer=0 | pready =1  | write_read =1 | wdata_in =       165 | addr_in =167 |  strb = 4 |  pslverr=0 | prdata =       128   
# generator: :  transfer=0 | pready =1  | write_read =1 | wdata_in =        22 | addr_in =179 |  strb = 1 |  pslverr=0 | prdata =       134   
# generator: :  transfer=0 | pready =1  | write_read =1 | wdata_in =        36 | addr_in = 77 |  strb =11 |  pslverr=1 | prdata =        77   
# generator: :  transfer=0 | pready =1  | write_read =1 | wdata_in =        42 | addr_in =171 |  strb = 1 |  pslverr=0 | prdata =        62   
# generator: :  transfer=0 | pready =0  | write_read =1 | wdata_in =        37 | addr_in =188 |  strb =15 |  pslverr=1 | prdata =       247   
# generator: :  transfer=0 | pready =1  | write_read =1 | wdata_in =       116 | addr_in = 23 |  strb = 9 |  pslverr=1 | prdata =       252   
# generator: :  transfer=0 | pready =1  | write_read =1 | wdata_in =         9 | addr_in = 96 |  strb =10 |  pslverr=0 | prdata =         6   
# generator: :  transfer=0 | pready =0  | write_read =1 | wdata_in =        90 | addr_in =191 |  strb = 9 |  pslverr=1 | prdata =         3   
# generator: :  transfer=0 | pready =0  | write_read =1 | wdata_in =       159 | addr_in =245 |  strb = 4 |  pslverr=0 | prdata =        38   
# generator: :  transfer=0 | pready =0  | write_read =1 | wdata_in =       188 | addr_in =210 |  strb = 0 |  pslverr=1 | prdata =        47   
# generator: :  transfer=0 | pready =1  | write_read =1 | wdata_in =       143 | addr_in = 86 |  strb = 6 |  pslverr=1 | prdata =       190   
# generator: :  transfer=0 | pready =1  | write_read =1 | wdata_in =       173 | addr_in =218 |  strb =15 |  pslverr=0 | prdata =       132   
# generator: :  transfer=0 | pready =0  | write_read =1 | wdata_in =       123 | addr_in =107 |  strb =11 |  pslverr=0 | prdata =       192   
# generator: :  transfer=0 | pready =1  | write_read =1 | wdata_in =       179 | addr_in = 87 |  strb = 8 |  pslverr=1 | prdata =       179   
# generator: :  transfer=0 | pready =1  | write_read =1 | wdata_in =       112 | addr_in =160 |  strb = 3 |  pslverr=0 | prdata =        19   
# generator: :  transfer=0 | pready =0  | write_read =1 | wdata_in =        55 | addr_in = 25 |  strb = 5 |  pslverr=1 | prdata =       198   
# generator: :  transfer=0 | pready =1  | write_read =1 | wdata_in =        58 | addr_in = 21 |  strb = 2 |  pslverr=0 | prdata =       253   
# generator: :  transfer=0 | pready =1  | write_read =1 | wdata_in =        76 | addr_in = 78 |  strb = 9 |  pslverr=1 | prdata =       144   
# generator: :  transfer=0 | pready =0  | write_read =1 | wdata_in =       110 | addr_in = 38 |  strb = 6 |  pslverr=0 | prdata =       105   
# generator: :  transfer=0 | pready =0  | write_read =1 | wdata_in =       124 | addr_in =  2 |  strb =10 |  pslverr=0 | prdata =       238   
# generator: :  transfer=0 | pready =1  | write_read =1 | wdata_in =        82 | addr_in =212 |  strb = 9 |  pslverr=1 | prdata =        21   
# generator: :  transfer=0 | pready =1  | write_read =1 | wdata_in =        31 | addr_in =119 |  strb = 2 |  pslverr=0 | prdata =       225   
# generator: :  transfer=0 | pready =1  | write_read =1 | wdata_in =       214 | addr_in =145 |  strb = 5 |  pslverr=0 | prdata =        39   
# generator: :  transfer=0 | pready =1  | write_read =1 | wdata_in =       185 | addr_in =  5 |  strb = 1 |  pslverr=1 | prdata =       227   
# generator: :  transfer=0 | pready =0  | write_read =1 | wdata_in =       118 | addr_in = 95 |  strb =11 |  pslverr=0 | prdata =        95   
# generator: :  transfer=0 | pready =1  | write_read =1 | wdata_in =        29 | addr_in = 47 |  strb = 8 |  pslverr=1 | prdata =       117   
# generator: :  transfer=0 | pready =0  | write_read =1 | wdata_in =        85 | addr_in = 20 |  strb = 8 |  pslverr=1 | prdata =       247   
# generator: :  transfer=0 | pready =1  | write_read =1 | wdata_in =       196 | addr_in =112 |  strb = 1 |  pslverr=1 | prdata =       233   
# generator: :  transfer=0 | pready =1  | write_read =1 | wdata_in =       252 | addr_in =174 |  strb = 6 |  pslverr=0 | prdata =        41   
# ====================================================================================================================================================
# 
# driver: :  transfer=0 | wdata =4294967295 | addr =146 | write_read =1  | strb = 1 | pready =0 | pslverr=1 | prdata =       210  | time=70 
#  monitor : psel =0  | paddr=  0 | pwrite=0 | penable =0 | transfer_done=0  | pstrb = 0  | pwdata =         0  | rdata =         0  | error =0 | time=70
# apb_pkg.apb_reference.run  ref:fail : psel =0  | paddr=  0 | pwrite=0 | penable =0 | transfer_done=0  | pstrb = 0  | pwdata =         0  | rdata =         0  | error =0  | time =70 
# scoreboard : pass
# ====================================================================================================================================================
# 
# driver: :  transfer=0 | wdata =         0 | addr =245 | write_read =1  | strb = 0 | pready =0 | pslverr=0 | prdata =       112  | time=90 
#  monitor : psel =0  | paddr=  0 | pwrite=0 | penable =0 | transfer_done=0  | pstrb = 0  | pwdata =         0  | rdata =         0  | error =0 | time=90
# apb_pkg.apb_reference.run  ref:fail : psel =0  | paddr=  0 | pwrite=0 | penable =0 | transfer_done=0  | pstrb = 0  | pwdata =         0  | rdata =         0  | error =0  | time =90 
# scoreboard : pass
# ====================================================================================================================================================
# 
# driver: :  transfer=0 | wdata =       142 | addr =171 | write_read =1  | strb = 8 | pready =0 | pslverr=0 | prdata =        43  | time=110 
#  monitor : psel =0  | paddr=  0 | pwrite=0 | penable =0 | transfer_done=0  | pstrb = 0  | pwdata =         0  | rdata =         0  | error =0 | time=110
# apb_pkg.apb_reference.run  ref:fail : psel =0  | paddr=  0 | pwrite=0 | penable =0 | transfer_done=0  | pstrb = 0  | pwdata =         0  | rdata =         0  | error =0  | time =110 
# scoreboard : pass
# ====================================================================================================================================================
# 
# driver: :  transfer=1 | wdata =       153 | addr =114 | write_read =1  | strb = 4 | pready =0 | pslverr=1 | prdata =       153  | time=130 
#  monitor : psel =0  | paddr=  0 | pwrite=0 | penable =0 | transfer_done=0  | pstrb = 0  | pwdata =         0  | rdata =         0  | error =0 | time=130
# apb_pkg.apb_reference.run  ref:fail : psel =1  | paddr=114 | pwrite=1 | penable =0 | transfer_done=0  | pstrb = 4  | pwdata =       153  | rdata =         0  | error =0  | time =130 
# scoreboard mon:fail : psel =0  | paddr=  0 | pwrite=0 | penable =0 | transfer_done=0  | pstrb = 0  | pwdata =         0  | rdata =         0  | error =0 | tine =130 
# scoreboard ref:fail : psel =1  | paddr=114 | pwrite=1 | penable =0 | transfer_done=0  | pstrb = 4  | pwdata =       153  | rdata =         0  | error =0 | time =130
# ====================================================================================================================================================
# 
# driver: :  transfer=1 | wdata =       153 | addr =114 | write_read =1  | strb = 1 | pready =0 | pslverr=0 | prdata =       136  | time=150 
#  monitor : psel =1  | paddr=  0 | pwrite=0 | penable =0 | transfer_done=0  | pstrb = 0  | pwdata =         0  | rdata =         0  | error =0 | time=150
# apb_pkg.apb_reference.run  ref:fail : psel =1  | paddr=114 | pwrite=1 | penable =0 | transfer_done=0  | pstrb = 1  | pwdata =       153  | rdata =         0  | error =0  | time =150 
# scoreboard mon:fail : psel =1  | paddr=  0 | pwrite=0 | penable =0 | transfer_done=0  | pstrb = 0  | pwdata =         0  | rdata =         0  | error =0 | tine =150 
# scoreboard ref:fail : psel =1  | paddr=114 | pwrite=1 | penable =0 | transfer_done=0  | pstrb = 1  | pwdata =       153  | rdata =         0  | error =0 | time =150
# ====================================================================================================================================================
# 
# driver: :  transfer=1 | wdata =       153 | addr =114 | write_read =1  | strb = 9 | pready =0 | pslverr=0 | prdata =        75  | time=170 
#  monitor : psel =1  | paddr=114 | pwrite=1 | penable =1 | transfer_done=0  | pstrb = 4  | pwdata =       153  | rdata =         0  | error =0 | time=170
# apb_pkg.apb_reference.run  ref:fail : psel =1  | paddr=114 | pwrite=1 | penable =0 | transfer_done=0  | pstrb = 9  | pwdata =       153  | rdata =         0  | error =0  | time =170 
# scoreboard mon:fail : psel =1  | paddr=114 | pwrite=1 | penable =1 | transfer_done=0  | pstrb = 4  | pwdata =       153  | rdata =         0  | error =0 | tine =170 
# scoreboard ref:fail : psel =1  | paddr=114 | pwrite=1 | penable =0 | transfer_done=0  | pstrb = 9  | pwdata =       153  | rdata =         0  | error =0 | time =170
# ====================================================================================================================================================
# 
# driver: :  transfer=1 | wdata =       153 | addr =114 | write_read =1  | strb = 2 | pready =1 | pslverr=1 | prdata =       248  | time=190 
#  monitor : psel =1  | paddr=114 | pwrite=1 | penable =1 | transfer_done=0  | pstrb = 4  | pwdata =       153  | rdata =         0  | error =0 | time=190
# apb_pkg.apb_reference.run  ref:fail : psel =1  | paddr=114 | pwrite=1 | penable =0 | transfer_done=0  | pstrb = 2  | pwdata =       153  | rdata =         0  | error =0  | time =190 
# scoreboard mon:fail : psel =1  | paddr=114 | pwrite=1 | penable =1 | transfer_done=0  | pstrb = 4  | pwdata =       153  | rdata =         0  | error =0 | tine =190 
# scoreboard ref:fail : psel =1  | paddr=114 | pwrite=1 | penable =0 | transfer_done=0  | pstrb = 2  | pwdata =       153  | rdata =         0  | error =0 | time =190
# ====================================================================================================================================================
# 
# driver: :  transfer=1 | wdata =       127 | addr = 30 | write_read =1  | strb =13 | pready =1 | pslverr=1 | prdata =        21  | time=210 
#  monitor : psel =0  | paddr=114 | pwrite=1 | penable =0 | transfer_done=1  | pstrb = 4  | pwdata =       153  | rdata =         0  | error =1 | time=210
# apb_pkg.apb_reference.run  ref:fail : psel =1  | paddr= 30 | pwrite=1 | penable =0 | transfer_done=0  | pstrb =13  | pwdata =       127  | rdata =         0  | error =0  | time =210 
# scoreboard mon:fail : psel =0  | paddr=114 | pwrite=1 | penable =0 | transfer_done=1  | pstrb = 4  | pwdata =       153  | rdata =         0  | error =1 | tine =210 
# scoreboard ref:fail : psel =1  | paddr= 30 | pwrite=1 | penable =0 | transfer_done=0  | pstrb =13  | pwdata =       127  | rdata =         0  | error =0 | time =210
# ====================================================================================================================================================
# 
# driver: :  transfer=1 | wdata =       164 | addr = 61 | write_read =1  | strb = 0 | pready =1 | pslverr=0 | prdata =       134  | time=230 
#  monitor : psel =1  | paddr=114 | pwrite=1 | penable =0 | transfer_done=0  | pstrb = 4  | pwdata =       153  | rdata =         0  | error =0 | time=230
# apb_pkg.apb_reference.run  ref:fail : psel =1  | paddr= 61 | pwrite=1 | penable =0 | transfer_done=0  | pstrb = 0  | pwdata =       164  | rdata =         0  | error =0  | time =230 
# scoreboard mon:fail : psel =1  | paddr=114 | pwrite=1 | penable =0 | transfer_done=0  | pstrb = 4  | pwdata =       153  | rdata =         0  | error =0 | tine =230 
# scoreboard ref:fail : psel =1  | paddr= 61 | pwrite=1 | penable =0 | transfer_done=0  | pstrb = 0  | pwdata =       164  | rdata =         0  | error =0 | time =230
# ====================================================================================================================================================
# 
# driver: :  transfer=0 | wdata =        33 | addr =198 | write_read =1  | strb = 6 | pready =1 | pslverr=1 | prdata =        97  | time=250 
#  monitor : psel =1  | paddr= 30 | pwrite=1 | penable =1 | transfer_done=0  | pstrb =13  | pwdata =       127  | rdata =         0  | error =0 | time=250
# apb_pkg.apb_reference.run  ref:fail : psel =0  | paddr=  0 | pwrite=0 | penable =0 | transfer_done=0  | pstrb = 0  | pwdata =         0  | rdata =         0  | error =0  | time =250 
# scoreboard mon:fail : psel =1  | paddr= 30 | pwrite=1 | penable =1 | transfer_done=0  | pstrb =13  | pwdata =       127  | rdata =         0  | error =0 | tine =250 
# scoreboard ref:fail : psel =0  | paddr=  0 | pwrite=0 | penable =0 | transfer_done=0  | pstrb = 0  | pwdata =         0  | rdata =         0  | error =0 | time =250
# ====================================================================================================================================================
# 
# driver: :  transfer=0 | wdata =        15 | addr =239 | write_read =1  | strb = 8 | pready =0 | pslverr=1 | prdata =        52  | time=270 
#  monitor : psel =0  | paddr= 30 | pwrite=1 | penable =0 | transfer_done=1  | pstrb =13  | pwdata =       127  | rdata =         0  | error =1 | time=270
# apb_pkg.apb_reference.run  ref:fail : psel =0  | paddr=  0 | pwrite=0 | penable =0 | transfer_done=0  | pstrb = 0  | pwdata =         0  | rdata =         0  | error =0  | time =270 
# scoreboard mon:fail : psel =0  | paddr= 30 | pwrite=1 | penable =0 | transfer_done=1  | pstrb =13  | pwdata =       127  | rdata =         0  | error =1 | tine =270 
# scoreboard ref:fail : psel =0  | paddr=  0 | pwrite=0 | penable =0 | transfer_done=0  | pstrb = 0  | pwdata =         0  | rdata =         0  | error =0 | time =270
# ====================================================================================================================================================
# 
# driver: :  transfer=1 | wdata =       194 | addr =204 | write_read =1  | strb =15 | pready =0 | pslverr=0 | prdata =        90  | time=290 
#  monitor : psel =0  | paddr= 30 | pwrite=1 | penable =0 | transfer_done=0  | pstrb =13  | pwdata =       127  | rdata =         0  | error =0 | time=290
# apb_pkg.apb_reference.run  ref:fail : psel =1  | paddr=204 | pwrite=1 | penable =0 | transfer_done=0  | pstrb =15  | pwdata =       194  | rdata =         0  | error =0  | time =290 
# scoreboard mon:fail : psel =0  | paddr= 30 | pwrite=1 | penable =0 | transfer_done=0  | pstrb =13  | pwdata =       127  | rdata =         0  | error =0 | tine =290 
# scoreboard ref:fail : psel =1  | paddr=204 | pwrite=1 | penable =0 | transfer_done=0  | pstrb =15  | pwdata =       194  | rdata =         0  | error =0 | time =290
# ====================================================================================================================================================
# 
# driver: :  transfer=1 | wdata =       194 | addr =204 | write_read =1  | strb = 6 | pready =1 | pslverr=0 | prdata =       169  | time=310 
#  monitor : psel =1  | paddr= 30 | pwrite=1 | penable =0 | transfer_done=0  | pstrb =13  | pwdata =       127  | rdata =         0  | error =0 | time=310
# apb_pkg.apb_reference.run  ref:fail : psel =1  | paddr=204 | pwrite=1 | penable =0 | transfer_done=0  | pstrb = 6  | pwdata =       194  | rdata =         0  | error =0  | time =310 
# scoreboard mon:fail : psel =1  | paddr= 30 | pwrite=1 | penable =0 | transfer_done=0  | pstrb =13  | pwdata =       127  | rdata =         0  | error =0 | tine =310 
# scoreboard ref:fail : psel =1  | paddr=204 | pwrite=1 | penable =0 | transfer_done=0  | pstrb = 6  | pwdata =       194  | rdata =         0  | error =0 | time =310
# ====================================================================================================================================================
# 
# driver: :  transfer=0 | wdata =        52 | addr =220 | write_read =1  | strb = 0 | pready =0 | pslverr=0 | prdata =        21  | time=330 
#  monitor : psel =1  | paddr=204 | pwrite=1 | penable =1 | transfer_done=0  | pstrb =15  | pwdata =       194  | rdata =         0  | error =0 | time=330
# apb_pkg.apb_reference.run  ref:fail : psel =0  | paddr=  0 | pwrite=0 | penable =0 | transfer_done=0  | pstrb = 0  | pwdata =         0  | rdata =         0  | error =0  | time =330 
# scoreboard mon:fail : psel =1  | paddr=204 | pwrite=1 | penable =1 | transfer_done=0  | pstrb =15  | pwdata =       194  | rdata =         0  | error =0 | tine =330 
# scoreboard ref:fail : psel =0  | paddr=  0 | pwrite=0 | penable =0 | transfer_done=0  | pstrb = 0  | pwdata =         0  | rdata =         0  | error =0 | time =330
# ====================================================================================================================================================
# 
# driver: :  transfer=0 | wdata =        14 | addr =235 | write_read =1  | strb =11 | pready =0 | pslverr=1 | prdata =       130  | time=350 
#  monitor : psel =1  | paddr=204 | pwrite=1 | penable =1 | transfer_done=0  | pstrb =15  | pwdata =       194  | rdata =         0  | error =0 | time=350
# apb_pkg.apb_reference.run  ref:fail : psel =0  | paddr=  0 | pwrite=0 | penable =0 | transfer_done=0  | pstrb = 0  | pwdata =         0  | rdata =         0  | error =0  | time =350 
# scoreboard mon:fail : psel =1  | paddr=204 | pwrite=1 | penable =1 | transfer_done=0  | pstrb =15  | pwdata =       194  | rdata =         0  | error =0 | tine =350 
# scoreboard ref:fail : psel =0  | paddr=  0 | pwrite=0 | penable =0 | transfer_done=0  | pstrb = 0  | pwdata =         0  | rdata =         0  | error =0 | time =350
# ====================================================================================================================================================
# 
# driver: :  transfer=0 | wdata =       231 | addr =249 | write_read =1  | strb = 4 | pready =0 | pslverr=1 | prdata =       167  | time=370 
#  monitor : psel =1  | paddr=204 | pwrite=1 | penable =1 | transfer_done=0  | pstrb =15  | pwdata =       194  | rdata =         0  | error =0 | time=370
# apb_pkg.apb_reference.run  ref:fail : psel =0  | paddr=  0 | pwrite=0 | penable =0 | transfer_done=0  | pstrb = 0  | pwdata =         0  | rdata =         0  | error =0  | time =370 
# scoreboard mon:fail : psel =1  | paddr=204 | pwrite=1 | penable =1 | transfer_done=0  | pstrb =15  | pwdata =       194  | rdata =         0  | error =0 | tine =370 
# scoreboard ref:fail : psel =0  | paddr=  0 | pwrite=0 | penable =0 | transfer_done=0  | pstrb = 0  | pwdata =         0  | rdata =         0  | error =0 | time =370
# ====================================================================================================================================================
# 
# driver: :  transfer=0 | wdata =        27 | addr =182 | write_read =1  | strb = 7 | pready =1 | pslverr=1 | prdata =        92  | time=390 
#  monitor : psel =1  | paddr=204 | pwrite=1 | penable =1 | transfer_done=0  | pstrb =15  | pwdata =       194  | rdata =         0  | error =0 | time=390
# apb_pkg.apb_reference.run  ref:fail : psel =0  | paddr=  0 | pwrite=0 | penable =0 | transfer_done=0  | pstrb = 0  | pwdata =         0  | rdata =         0  | error =0  | time =390 
# scoreboard mon:fail : psel =1  | paddr=204 | pwrite=1 | penable =1 | transfer_done=0  | pstrb =15  | pwdata =       194  | rdata =         0  | error =0 | tine =390 
# scoreboard ref:fail : psel =0  | paddr=  0 | pwrite=0 | penable =0 | transfer_done=0  | pstrb = 0  | pwdata =         0  | rdata =         0  | error =0 | time =390
# ====================================================================================================================================================
# 
# driver: :  transfer=0 | wdata =       208 | addr = 38 | write_read =1  | strb = 2 | pready =0 | pslverr=1 | prdata =       169  | time=410 
#  monitor : psel =0  | paddr=204 | pwrite=1 | penable =0 | transfer_done=1  | pstrb =15  | pwdata =       194  | rdata =         0  | error =1 | time=410
# apb_pkg.apb_reference.run  ref:fail : psel =0  | paddr=  0 | pwrite=0 | penable =0 | transfer_done=0  | pstrb = 0  | pwdata =         0  | rdata =         0  | error =0  | time =410 
# scoreboard mon:fail : psel =0  | paddr=204 | pwrite=1 | penable =0 | transfer_done=1  | pstrb =15  | pwdata =       194  | rdata =         0  | error =1 | tine =410 
# scoreboard ref:fail : psel =0  | paddr=  0 | pwrite=0 | penable =0 | transfer_done=0  | pstrb = 0  | pwdata =         0  | rdata =         0  | error =0 | time =410
# ====================================================================================================================================================
# 
# driver: :  transfer=0 | wdata =       180 | addr = 22 | write_read =1  | strb = 1 | pready =1 | pslverr=1 | prdata =       236  | time=430 
#  monitor : psel =0  | paddr=204 | pwrite=1 | penable =0 | transfer_done=0  | pstrb =15  | pwdata =       194  | rdata =         0  | error =0 | time=430
# apb_pkg.apb_reference.run  ref:fail : psel =0  | paddr=  0 | pwrite=0 | penable =0 | transfer_done=0  | pstrb = 0  | pwdata =         0  | rdata =         0  | error =0  | time =430 
# scoreboard mon:fail : psel =0  | paddr=204 | pwrite=1 | penable =0 | transfer_done=0  | pstrb =15  | pwdata =       194  | rdata =         0  | error =0 | tine =430 
# scoreboard ref:fail : psel =0  | paddr=  0 | pwrite=0 | penable =0 | transfer_done=0  | pstrb = 0  | pwdata =         0  | rdata =         0  | error =0 | time =430
# ====================================================================================================================================================
# 
# driver: :  transfer=0 | wdata =       139 | addr = 53 | write_read =1  | strb = 7 | pready =1 | pslverr=0 | prdata =        16  | time=450 
#  monitor : psel =0  | paddr=204 | pwrite=1 | penable =0 | transfer_done=0  | pstrb =15  | pwdata =       194  | rdata =         0  | error =0 | time=450
# apb_pkg.apb_reference.run  ref:fail : psel =0  | paddr=  0 | pwrite=0 | penable =0 | transfer_done=0  | pstrb = 0  | pwdata =         0  | rdata =         0  | error =0  | time =450 
# scoreboard mon:fail : psel =0  | paddr=204 | pwrite=1 | penable =0 | transfer_done=0  | pstrb =15  | pwdata =       194  | rdata =         0  | error =0 | tine =450 
# scoreboard ref:fail : psel =0  | paddr=  0 | pwrite=0 | penable =0 | transfer_done=0  | pstrb = 0  | pwdata =         0  | rdata =         0  | error =0 | time =450
# ====================================================================================================================================================
# 
# driver: :  transfer=0 | wdata =       115 | addr = 15 | write_read =1  | strb =14 | pready =1 | pslverr=0 | prdata =       208  | time=470 
#  monitor : psel =0  | paddr=204 | pwrite=1 | penable =0 | transfer_done=0  | pstrb =15  | pwdata =       194  | rdata =         0  | error =0 | time=470
# apb_pkg.apb_reference.run  ref:fail : psel =0  | paddr=  0 | pwrite=0 | penable =0 | transfer_done=0  | pstrb = 0  | pwdata =         0  | rdata =         0  | error =0  | time =470 
# scoreboard mon:fail : psel =0  | paddr=204 | pwrite=1 | penable =0 | transfer_done=0  | pstrb =15  | pwdata =       194  | rdata =         0  | error =0 | tine =470 
# scoreboard ref:fail : psel =0  | paddr=  0 | pwrite=0 | penable =0 | transfer_done=0  | pstrb = 0  | pwdata =         0  | rdata =         0  | error =0 | time =470
# ====================================================================================================================================================
# 
# driver: :  transfer=0 | wdata =       112 | addr = 98 | write_read =1  | strb =15 | pready =1 | pslverr=0 | prdata =       165  | time=490 
#  monitor : psel =0  | paddr=204 | pwrite=1 | penable =0 | transfer_done=0  | pstrb =15  | pwdata =       194  | rdata =         0  | error =0 | time=490
# apb_pkg.apb_reference.run  ref:fail : psel =0  | paddr=  0 | pwrite=0 | penable =0 | transfer_done=0  | pstrb = 0  | pwdata =         0  | rdata =         0  | error =0  | time =490 
# scoreboard mon:fail : psel =0  | paddr=204 | pwrite=1 | penable =0 | transfer_done=0  | pstrb =15  | pwdata =       194  | rdata =         0  | error =0 | tine =490 
# scoreboard ref:fail : psel =0  | paddr=  0 | pwrite=0 | penable =0 | transfer_done=0  | pstrb = 0  | pwdata =         0  | rdata =         0  | error =0 | time =490
# ====================================================================================================================================================
# 
# driver: :  transfer=0 | wdata =       134 | addr = 67 | write_read =1  | strb =15 | pready =0 | pslverr=1 | prdata =       206  | time=510 
#  monitor : psel =0  | paddr=204 | pwrite=1 | penable =0 | transfer_done=0  | pstrb =15  | pwdata =       194  | rdata =         0  | error =0 | time=510
# apb_pkg.apb_reference.run  ref:fail : psel =0  | paddr=  0 | pwrite=0 | penable =0 | transfer_done=0  | pstrb = 0  | pwdata =         0  | rdata =         0  | error =0  | time =510 
# scoreboard mon:fail : psel =0  | paddr=204 | pwrite=1 | penable =0 | transfer_done=0  | pstrb =15  | pwdata =       194  | rdata =         0  | error =0 | tine =510 
# scoreboard ref:fail : psel =0  | paddr=  0 | pwrite=0 | penable =0 | transfer_done=0  | pstrb = 0  | pwdata =         0  | rdata =         0  | error =0 | time =510
# ====================================================================================================================================================
# 
# driver: :  transfer=0 | wdata =       228 | addr =158 | write_read =1  | strb = 4 | pready =1 | pslverr=0 | prdata =       187  | time=530 
#  monitor : psel =0  | paddr=204 | pwrite=1 | penable =0 | transfer_done=0  | pstrb =15  | pwdata =       194  | rdata =         0  | error =0 | time=530
# apb_pkg.apb_reference.run  ref:fail : psel =0  | paddr=  0 | pwrite=0 | penable =0 | transfer_done=0  | pstrb = 0  | pwdata =         0  | rdata =         0  | error =0  | time =530 
# scoreboard mon:fail : psel =0  | paddr=204 | pwrite=1 | penable =0 | transfer_done=0  | pstrb =15  | pwdata =       194  | rdata =         0  | error =0 | tine =530 
# scoreboard ref:fail : psel =0  | paddr=  0 | pwrite=0 | penable =0 | transfer_done=0  | pstrb = 0  | pwdata =         0  | rdata =         0  | error =0 | time =530
# ====================================================================================================================================================
# 
# driver: :  transfer=0 | wdata =        56 | addr = 98 | write_read =1  | strb = 3 | pready =1 | pslverr=1 | prdata =       103  | time=550 
#  monitor : psel =0  | paddr=204 | pwrite=1 | penable =0 | transfer_done=0  | pstrb =15  | pwdata =       194  | rdata =         0  | error =0 | time=550
# apb_pkg.apb_reference.run  ref:fail : psel =0  | paddr=  0 | pwrite=0 | penable =0 | transfer_done=0  | pstrb = 0  | pwdata =         0  | rdata =         0  | error =0  | time =550 
# scoreboard mon:fail : psel =0  | paddr=204 | pwrite=1 | penable =0 | transfer_done=0  | pstrb =15  | pwdata =       194  | rdata =         0  | error =0 | tine =550 
# scoreboard ref:fail : psel =0  | paddr=  0 | pwrite=0 | penable =0 | transfer_done=0  | pstrb = 0  | pwdata =         0  | rdata =         0  | error =0 | time =550
# ====================================================================================================================================================
# 
# driver: :  transfer=0 | wdata =       178 | addr = 34 | write_read =1  | strb = 5 | pready =1 | pslverr=1 | prdata =        95  | time=570 
#  monitor : psel =0  | paddr=204 | pwrite=1 | penable =0 | transfer_done=0  | pstrb =15  | pwdata =       194  | rdata =         0  | error =0 | time=570
# apb_pkg.apb_reference.run  ref:fail : psel =0  | paddr=  0 | pwrite=0 | penable =0 | transfer_done=0  | pstrb = 0  | pwdata =         0  | rdata =         0  | error =0  | time =570 
# scoreboard mon:fail : psel =0  | paddr=204 | pwrite=1 | penable =0 | transfer_done=0  | pstrb =15  | pwdata =       194  | rdata =         0  | error =0 | tine =570 
# scoreboard ref:fail : psel =0  | paddr=  0 | pwrite=0 | penable =0 | transfer_done=0  | pstrb = 0  | pwdata =         0  | rdata =         0  | error =0 | time =570
# ====================================================================================================================================================
# 
# driver: :  transfer=0 | wdata =         0 | addr =102 | write_read =1  | strb =15 | pready =1 | pslverr=1 | prdata =        72  | time=590 
#  monitor : psel =0  | paddr=204 | pwrite=1 | penable =0 | transfer_done=0  | pstrb =15  | pwdata =       194  | rdata =         0  | error =0 | time=590
# apb_pkg.apb_reference.run  ref:fail : psel =0  | paddr=  0 | pwrite=0 | penable =0 | transfer_done=0  | pstrb = 0  | pwdata =         0  | rdata =         0  | error =0  | time =590 
# scoreboard mon:fail : psel =0  | paddr=204 | pwrite=1 | penable =0 | transfer_done=0  | pstrb =15  | pwdata =       194  | rdata =         0  | error =0 | tine =590 
# scoreboard ref:fail : psel =0  | paddr=  0 | pwrite=0 | penable =0 | transfer_done=0  | pstrb = 0  | pwdata =         0  | rdata =         0  | error =0 | time =590
# ====================================================================================================================================================
# 
# driver: :  transfer=0 | wdata =        25 | addr =131 | write_read =1  | strb = 0 | pready =1 | pslverr=1 | prdata =        52  | time=610 
#  monitor : psel =0  | paddr=204 | pwrite=1 | penable =0 | transfer_done=0  | pstrb =15  | pwdata =       194  | rdata =         0  | error =0 | time=610
# apb_pkg.apb_reference.run  ref:fail : psel =0  | paddr=  0 | pwrite=0 | penable =0 | transfer_done=0  | pstrb = 0  | pwdata =         0  | rdata =         0  | error =0  | time =610 
# scoreboard mon:fail : psel =0  | paddr=204 | pwrite=1 | penable =0 | transfer_done=0  | pstrb =15  | pwdata =       194  | rdata =         0  | error =0 | tine =610 
# scoreboard ref:fail : psel =0  | paddr=  0 | pwrite=0 | penable =0 | transfer_done=0  | pstrb = 0  | pwdata =         0  | rdata =         0  | error =0 | time =610
# ====================================================================================================================================================
# 
# driver: :  transfer=0 | wdata =       135 | addr =181 | write_read =1  | strb = 5 | pready =0 | pslverr=1 | prdata =       219  | time=630 
#  monitor : psel =0  | paddr=204 | pwrite=1 | penable =0 | transfer_done=0  | pstrb =15  | pwdata =       194  | rdata =         0  | error =0 | time=630
# apb_pkg.apb_reference.run  ref:fail : psel =0  | paddr=  0 | pwrite=0 | penable =0 | transfer_done=0  | pstrb = 0  | pwdata =         0  | rdata =         0  | error =0  | time =630 
# scoreboard mon:fail : psel =0  | paddr=204 | pwrite=1 | penable =0 | transfer_done=0  | pstrb =15  | pwdata =       194  | rdata =         0  | error =0 | tine =630 
# scoreboard ref:fail : psel =0  | paddr=  0 | pwrite=0 | penable =0 | transfer_done=0  | pstrb = 0  | pwdata =         0  | rdata =         0  | error =0 | time =630
# ====================================================================================================================================================
# 
# driver: :  transfer=0 | wdata =       158 | addr =108 | write_read =1  | strb =12 | pready =0 | pslverr=1 | prdata =       176  | time=650 
#  monitor : psel =0  | paddr=204 | pwrite=1 | penable =0 | transfer_done=0  | pstrb =15  | pwdata =       194  | rdata =         0  | error =0 | time=650
# apb_pkg.apb_reference.run  ref:fail : psel =0  | paddr=  0 | pwrite=0 | penable =0 | transfer_done=0  | pstrb = 0  | pwdata =         0  | rdata =         0  | error =0  | time =650 
# scoreboard mon:fail : psel =0  | paddr=204 | pwrite=1 | penable =0 | transfer_done=0  | pstrb =15  | pwdata =       194  | rdata =         0  | error =0 | tine =650 
# scoreboard ref:fail : psel =0  | paddr=  0 | pwrite=0 | penable =0 | transfer_done=0  | pstrb = 0  | pwdata =         0  | rdata =         0  | error =0 | time =650
# ====================================================================================================================================================
# 
# driver: :  transfer=0 | wdata =       237 | addr = 78 | write_read =1  | strb = 2 | pready =1 | pslverr=1 | prdata =        23  | time=670 
#  monitor : psel =0  | paddr=204 | pwrite=1 | penable =0 | transfer_done=0  | pstrb =15  | pwdata =       194  | rdata =         0  | error =0 | time=670
# apb_pkg.apb_reference.run  ref:fail : psel =0  | paddr=  0 | pwrite=0 | penable =0 | transfer_done=0  | pstrb = 0  | pwdata =         0  | rdata =         0  | error =0  | time =670 
# scoreboard mon:fail : psel =0  | paddr=204 | pwrite=1 | penable =0 | transfer_done=0  | pstrb =15  | pwdata =       194  | rdata =         0  | error =0 | tine =670 
# scoreboard ref:fail : psel =0  | paddr=  0 | pwrite=0 | penable =0 | transfer_done=0  | pstrb = 0  | pwdata =         0  | rdata =         0  | error =0 | time =670
# ====================================================================================================================================================
# 
# driver: :  transfer=0 | wdata =       122 | addr = 73 | write_read =1  | strb = 3 | pready =1 | pslverr=0 | prdata =        80  | time=690 
#  monitor : psel =0  | paddr=204 | pwrite=1 | penable =0 | transfer_done=0  | pstrb =15  | pwdata =       194  | rdata =         0  | error =0 | time=690
# apb_pkg.apb_reference.run  ref:fail : psel =0  | paddr=  0 | pwrite=0 | penable =0 | transfer_done=0  | pstrb = 0  | pwdata =         0  | rdata =         0  | error =0  | time =690 
# scoreboard mon:fail : psel =0  | paddr=204 | pwrite=1 | penable =0 | transfer_done=0  | pstrb =15  | pwdata =       194  | rdata =         0  | error =0 | tine =690 
# scoreboard ref:fail : psel =0  | paddr=  0 | pwrite=0 | penable =0 | transfer_done=0  | pstrb = 0  | pwdata =         0  | rdata =         0  | error =0 | time =690
# ====================================================================================================================================================
# 
# driver: :  transfer=0 | wdata =        14 | addr =201 | write_read =1  | strb =12 | pready =1 | pslverr=0 | prdata =       143  | time=710 
#  monitor : psel =0  | paddr=204 | pwrite=1 | penable =0 | transfer_done=0  | pstrb =15  | pwdata =       194  | rdata =         0  | error =0 | time=710
# apb_pkg.apb_reference.run  ref:fail : psel =0  | paddr=  0 | pwrite=0 | penable =0 | transfer_done=0  | pstrb = 0  | pwdata =         0  | rdata =         0  | error =0  | time =710 
# scoreboard mon:fail : psel =0  | paddr=204 | pwrite=1 | penable =0 | transfer_done=0  | pstrb =15  | pwdata =       194  | rdata =         0  | error =0 | tine =710 
# scoreboard ref:fail : psel =0  | paddr=  0 | pwrite=0 | penable =0 | transfer_done=0  | pstrb = 0  | pwdata =         0  | rdata =         0  | error =0 | time =710
# ====================================================================================================================================================
# 
# driver: :  transfer=0 | wdata =       248 | addr =235 | write_read =1  | strb =15 | pready =1 | pslverr=1 | prdata =       157  | time=730 
#  monitor : psel =0  | paddr=204 | pwrite=1 | penable =0 | transfer_done=0  | pstrb =15  | pwdata =       194  | rdata =         0  | error =0 | time=730
# apb_pkg.apb_reference.run  ref:fail : psel =0  | paddr=  0 | pwrite=0 | penable =0 | transfer_done=0  | pstrb = 0  | pwdata =         0  | rdata =         0  | error =0  | time =730 
# scoreboard mon:fail : psel =0  | paddr=204 | pwrite=1 | penable =0 | transfer_done=0  | pstrb =15  | pwdata =       194  | rdata =         0  | error =0 | tine =730 
# scoreboard ref:fail : psel =0  | paddr=  0 | pwrite=0 | penable =0 | transfer_done=0  | pstrb = 0  | pwdata =         0  | rdata =         0  | error =0 | time =730
# ====================================================================================================================================================
# 
# driver: :  transfer=0 | wdata =       252 | addr = 29 | write_read =1  | strb = 4 | pready =0 | pslverr=1 | prdata =       173  | time=750 
#  monitor : psel =0  | paddr=204 | pwrite=1 | penable =0 | transfer_done=0  | pstrb =15  | pwdata =       194  | rdata =         0  | error =0 | time=750
# apb_pkg.apb_reference.run  ref:fail : psel =0  | paddr=  0 | pwrite=0 | penable =0 | transfer_done=0  | pstrb = 0  | pwdata =         0  | rdata =         0  | error =0  | time =750 
# scoreboard mon:fail : psel =0  | paddr=204 | pwrite=1 | penable =0 | transfer_done=0  | pstrb =15  | pwdata =       194  | rdata =         0  | error =0 | tine =750 
# scoreboard ref:fail : psel =0  | paddr=  0 | pwrite=0 | penable =0 | transfer_done=0  | pstrb = 0  | pwdata =         0  | rdata =         0  | error =0 | time =750
# ====================================================================================================================================================
# 
# driver: :  transfer=0 | wdata =        13 | addr =117 | write_read =1  | strb = 9 | pready =0 | pslverr=0 | prdata =        80  | time=770 
#  monitor : psel =0  | paddr=204 | pwrite=1 | penable =0 | transfer_done=0  | pstrb =15  | pwdata =       194  | rdata =         0  | error =0 | time=770
# apb_pkg.apb_reference.run  ref:fail : psel =0  | paddr=  0 | pwrite=0 | penable =0 | transfer_done=0  | pstrb = 0  | pwdata =         0  | rdata =         0  | error =0  | time =770 
# scoreboard mon:fail : psel =0  | paddr=204 | pwrite=1 | penable =0 | transfer_done=0  | pstrb =15  | pwdata =       194  | rdata =         0  | error =0 | tine =770 
# scoreboard ref:fail : psel =0  | paddr=  0 | pwrite=0 | penable =0 | transfer_done=0  | pstrb = 0  | pwdata =         0  | rdata =         0  | error =0 | time =770
# ====================================================================================================================================================
# 
# driver: :  transfer=0 | wdata =       227 | addr =  3 | write_read =1  | strb =14 | pready =0 | pslverr=0 | prdata =       255  | time=790 
#  monitor : psel =0  | paddr=204 | pwrite=1 | penable =0 | transfer_done=0  | pstrb =15  | pwdata =       194  | rdata =         0  | error =0 | time=790
# apb_pkg.apb_reference.run  ref:fail : psel =0  | paddr=  0 | pwrite=0 | penable =0 | transfer_done=0  | pstrb = 0  | pwdata =         0  | rdata =         0  | error =0  | time =790 
# scoreboard mon:fail : psel =0  | paddr=204 | pwrite=1 | penable =0 | transfer_done=0  | pstrb =15  | pwdata =       194  | rdata =         0  | error =0 | tine =790 
# scoreboard ref:fail : psel =0  | paddr=  0 | pwrite=0 | penable =0 | transfer_done=0  | pstrb = 0  | pwdata =         0  | rdata =         0  | error =0 | time =790
# ====================================================================================================================================================
# 
# driver: :  transfer=0 | wdata =       250 | addr =148 | write_read =1  | strb = 8 | pready =0 | pslverr=0 | prdata =       135  | time=810 
#  monitor : psel =0  | paddr=204 | pwrite=1 | penable =0 | transfer_done=0  | pstrb =15  | pwdata =       194  | rdata =         0  | error =0 | time=810
# apb_pkg.apb_reference.run  ref:fail : psel =0  | paddr=  0 | pwrite=0 | penable =0 | transfer_done=0  | pstrb = 0  | pwdata =         0  | rdata =         0  | error =0  | time =810 
# scoreboard mon:fail : psel =0  | paddr=204 | pwrite=1 | penable =0 | transfer_done=0  | pstrb =15  | pwdata =       194  | rdata =         0  | error =0 | tine =810 
# scoreboard ref:fail : psel =0  | paddr=  0 | pwrite=0 | penable =0 | transfer_done=0  | pstrb = 0  | pwdata =         0  | rdata =         0  | error =0 | time =810
# ====================================================================================================================================================
# 
# driver: :  transfer=0 | wdata =        80 | addr =240 | write_read =1  | strb =12 | pready =0 | pslverr=0 | prdata =       235  | time=830 
#  monitor : psel =0  | paddr=204 | pwrite=1 | penable =0 | transfer_done=0  | pstrb =15  | pwdata =       194  | rdata =         0  | error =0 | time=830
# apb_pkg.apb_reference.run  ref:fail : psel =0  | paddr=  0 | pwrite=0 | penable =0 | transfer_done=0  | pstrb = 0  | pwdata =         0  | rdata =         0  | error =0  | time =830 
# scoreboard mon:fail : psel =0  | paddr=204 | pwrite=1 | penable =0 | transfer_done=0  | pstrb =15  | pwdata =       194  | rdata =         0  | error =0 | tine =830 
# scoreboard ref:fail : psel =0  | paddr=  0 | pwrite=0 | penable =0 | transfer_done=0  | pstrb = 0  | pwdata =         0  | rdata =         0  | error =0 | time =830
# ====================================================================================================================================================
# 
# driver: :  transfer=0 | wdata =       198 | addr =170 | write_read =1  | strb = 2 | pready =0 | pslverr=0 | prdata =       141  | time=850 
#  monitor : psel =0  | paddr=204 | pwrite=1 | penable =0 | transfer_done=0  | pstrb =15  | pwdata =       194  | rdata =         0  | error =0 | time=850
# apb_pkg.apb_reference.run  ref:fail : psel =0  | paddr=  0 | pwrite=0 | penable =0 | transfer_done=0  | pstrb = 0  | pwdata =         0  | rdata =         0  | error =0  | time =850 
# scoreboard mon:fail : psel =0  | paddr=204 | pwrite=1 | penable =0 | transfer_done=0  | pstrb =15  | pwdata =       194  | rdata =         0  | error =0 | tine =850 
# scoreboard ref:fail : psel =0  | paddr=  0 | pwrite=0 | penable =0 | transfer_done=0  | pstrb = 0  | pwdata =         0  | rdata =         0  | error =0 | time =850
# ====================================================================================================================================================
# 
# driver: :  transfer=0 | wdata =       252 | addr =224 | write_read =1  | strb = 8 | pready =0 | pslverr=0 | prdata =       195  | time=870 
#  monitor : psel =0  | paddr=204 | pwrite=1 | penable =0 | transfer_done=0  | pstrb =15  | pwdata =       194  | rdata =         0  | error =0 | time=870
# apb_pkg.apb_reference.run  ref:fail : psel =0  | paddr=  0 | pwrite=0 | penable =0 | transfer_done=0  | pstrb = 0  | pwdata =         0  | rdata =         0  | error =0  | time =870 
# scoreboard mon:fail : psel =0  | paddr=204 | pwrite=1 | penable =0 | transfer_done=0  | pstrb =15  | pwdata =       194  | rdata =         0  | error =0 | tine =870 
# scoreboard ref:fail : psel =0  | paddr=  0 | pwrite=0 | penable =0 | transfer_done=0  | pstrb = 0  | pwdata =         0  | rdata =         0  | error =0 | time =870
# ====================================================================================================================================================
# 
# driver: :  transfer=0 | wdata =       252 | addr = 48 | write_read =1  | strb = 6 | pready =1 | pslverr=1 | prdata =       178  | time=890 
#  monitor : psel =0  | paddr=204 | pwrite=1 | penable =0 | transfer_done=0  | pstrb =15  | pwdata =       194  | rdata =         0  | error =0 | time=890
# apb_pkg.apb_reference.run  ref:fail : psel =0  | paddr=  0 | pwrite=0 | penable =0 | transfer_done=0  | pstrb = 0  | pwdata =         0  | rdata =         0  | error =0  | time =890 
# scoreboard mon:fail : psel =0  | paddr=204 | pwrite=1 | penable =0 | transfer_done=0  | pstrb =15  | pwdata =       194  | rdata =         0  | error =0 | tine =890 
# scoreboard ref:fail : psel =0  | paddr=  0 | pwrite=0 | penable =0 | transfer_done=0  | pstrb = 0  | pwdata =         0  | rdata =         0  | error =0 | time =890
# ====================================================================================================================================================
# 
# driver: :  transfer=0 | wdata =       140 | addr =228 | write_read =1  | strb = 3 | pready =0 | pslverr=1 | prdata =         6  | time=910 
#  monitor : psel =0  | paddr=204 | pwrite=1 | penable =0 | transfer_done=0  | pstrb =15  | pwdata =       194  | rdata =         0  | error =0 | time=910
# apb_pkg.apb_reference.run  ref:fail : psel =0  | paddr=  0 | pwrite=0 | penable =0 | transfer_done=0  | pstrb = 0  | pwdata =         0  | rdata =         0  | error =0  | time =910 
# scoreboard mon:fail : psel =0  | paddr=204 | pwrite=1 | penable =0 | transfer_done=0  | pstrb =15  | pwdata =       194  | rdata =         0  | error =0 | tine =910 
# scoreboard ref:fail : psel =0  | paddr=  0 | pwrite=0 | penable =0 | transfer_done=0  | pstrb = 0  | pwdata =         0  | rdata =         0  | error =0 | time =910
# ====================================================================================================================================================
# 
# driver: :  transfer=0 | wdata =       123 | addr = 15 | write_read =1  | strb =14 | pready =0 | pslverr=1 | prdata =       129  | time=930 
#  monitor : psel =0  | paddr=204 | pwrite=1 | penable =0 | transfer_done=0  | pstrb =15  | pwdata =       194  | rdata =         0  | error =0 | time=930
# apb_pkg.apb_reference.run  ref:fail : psel =0  | paddr=  0 | pwrite=0 | penable =0 | transfer_done=0  | pstrb = 0  | pwdata =         0  | rdata =         0  | error =0  | time =930 
# scoreboard mon:fail : psel =0  | paddr=204 | pwrite=1 | penable =0 | transfer_done=0  | pstrb =15  | pwdata =       194  | rdata =         0  | error =0 | tine =930 
# scoreboard ref:fail : psel =0  | paddr=  0 | pwrite=0 | penable =0 | transfer_done=0  | pstrb = 0  | pwdata =         0  | rdata =         0  | error =0 | time =930
# ====================================================================================================================================================
# 
# driver: :  transfer=0 | wdata =       238 | addr = 40 | write_read =1  | strb =13 | pready =0 | pslverr=0 | prdata =        38  | time=950 
#  monitor : psel =0  | paddr=204 | pwrite=1 | penable =0 | transfer_done=0  | pstrb =15  | pwdata =       194  | rdata =         0  | error =0 | time=950
# apb_pkg.apb_reference.run  ref:fail : psel =0  | paddr=  0 | pwrite=0 | penable =0 | transfer_done=0  | pstrb = 0  | pwdata =         0  | rdata =         0  | error =0  | time =950 
# scoreboard mon:fail : psel =0  | paddr=204 | pwrite=1 | penable =0 | transfer_done=0  | pstrb =15  | pwdata =       194  | rdata =         0  | error =0 | tine =950 
# scoreboard ref:fail : psel =0  | paddr=  0 | pwrite=0 | penable =0 | transfer_done=0  | pstrb = 0  | pwdata =         0  | rdata =         0  | error =0 | time =950
# ====================================================================================================================================================
# 
# driver: :  transfer=0 | wdata =       187 | addr =  8 | write_read =1  | strb = 6 | pready =1 | pslverr=1 | prdata =       140  | time=970 
#  monitor : psel =0  | paddr=204 | pwrite=1 | penable =0 | transfer_done=0  | pstrb =15  | pwdata =       194  | rdata =         0  | error =0 | time=970
# apb_pkg.apb_reference.run  ref:fail : psel =0  | paddr=  0 | pwrite=0 | penable =0 | transfer_done=0  | pstrb = 0  | pwdata =         0  | rdata =         0  | error =0  | time =970 
# scoreboard mon:fail : psel =0  | paddr=204 | pwrite=1 | penable =0 | transfer_done=0  | pstrb =15  | pwdata =       194  | rdata =         0  | error =0 | tine =970 
# scoreboard ref:fail : psel =0  | paddr=  0 | pwrite=0 | penable =0 | transfer_done=0  | pstrb = 0  | pwdata =         0  | rdata =         0  | error =0 | time =970
# ====================================================================================================================================================
# 
# driver: :  transfer=0 | wdata =       215 | addr =188 | write_read =1  | strb = 2 | pready =0 | pslverr=1 | prdata =       254  | time=990 
#  monitor : psel =0  | paddr=204 | pwrite=1 | penable =0 | transfer_done=0  | pstrb =15  | pwdata =       194  | rdata =         0  | error =0 | time=990
# apb_pkg.apb_reference.run  ref:fail : psel =0  | paddr=  0 | pwrite=0 | penable =0 | transfer_done=0  | pstrb = 0  | pwdata =         0  | rdata =         0  | error =0  | time =990 
# scoreboard mon:fail : psel =0  | paddr=204 | pwrite=1 | penable =0 | transfer_done=0  | pstrb =15  | pwdata =       194  | rdata =         0  | error =0 | tine =990 
# scoreboard ref:fail : psel =0  | paddr=  0 | pwrite=0 | penable =0 | transfer_done=0  | pstrb = 0  | pwdata =         0  | rdata =         0  | error =0 | time =990
# ====================================================================================================================================================
# 
# driver: :  transfer=0 | wdata =        31 | addr = 27 | write_read =1  | strb = 3 | pready =0 | pslverr=0 | prdata =        91  | time=1010 
#  monitor : psel =0  | paddr=204 | pwrite=1 | penable =0 | transfer_done=0  | pstrb =15  | pwdata =       194  | rdata =         0  | error =0 | time=1010
# apb_pkg.apb_reference.run  ref:fail : psel =0  | paddr=  0 | pwrite=0 | penable =0 | transfer_done=0  | pstrb = 0  | pwdata =         0  | rdata =         0  | error =0  | time =1010 
# scoreboard mon:fail : psel =0  | paddr=204 | pwrite=1 | penable =0 | transfer_done=0  | pstrb =15  | pwdata =       194  | rdata =         0  | error =0 | tine =1010 
# scoreboard ref:fail : psel =0  | paddr=  0 | pwrite=0 | penable =0 | transfer_done=0  | pstrb = 0  | pwdata =         0  | rdata =         0  | error =0 | time =1010
# ====================================================================================================================================================
# 
# driver: :  transfer=0 | wdata =       184 | addr = 35 | write_read =1  | strb = 0 | pready =1 | pslverr=0 | prdata =       134  | time=1030 
#  monitor : psel =0  | paddr=204 | pwrite=1 | penable =0 | transfer_done=0  | pstrb =15  | pwdata =       194  | rdata =         0  | error =0 | time=1030
# apb_pkg.apb_reference.run  ref:fail : psel =0  | paddr=  0 | pwrite=0 | penable =0 | transfer_done=0  | pstrb = 0  | pwdata =         0  | rdata =         0  | error =0  | time =1030 
# scoreboard mon:fail : psel =0  | paddr=204 | pwrite=1 | penable =0 | transfer_done=0  | pstrb =15  | pwdata =       194  | rdata =         0  | error =0 | tine =1030 
# scoreboard ref:fail : psel =0  | paddr=  0 | pwrite=0 | penable =0 | transfer_done=0  | pstrb = 0  | pwdata =         0  | rdata =         0  | error =0 | time =1030
# ====================================================================================================================================================
# 
# driver: :  transfer=0 | wdata =       234 | addr = 66 | write_read =1  | strb = 7 | pready =1 | pslverr=0 | prdata =        44  | time=1050 
#  monitor : psel =0  | paddr=204 | pwrite=1 | penable =0 | transfer_done=0  | pstrb =15  | pwdata =       194  | rdata =         0  | error =0 | time=1050
# apb_pkg.apb_reference.run  ref:fail : psel =0  | paddr=  0 | pwrite=0 | penable =0 | transfer_done=0  | pstrb = 0  | pwdata =         0  | rdata =         0  | error =0  | time =1050 
# scoreboard mon:fail : psel =0  | paddr=204 | pwrite=1 | penable =0 | transfer_done=0  | pstrb =15  | pwdata =       194  | rdata =         0  | error =0 | tine =1050 
# scoreboard ref:fail : psel =0  | paddr=  0 | pwrite=0 | penable =0 | transfer_done=0  | pstrb = 0  | pwdata =         0  | rdata =         0  | error =0 | time =1050
# ====================================================================================================================================================
# 
# driver: :  transfer=0 | wdata =       184 | addr = 48 | write_read =1  | strb = 5 | pready =0 | pslverr=0 | prdata =       135  | time=1070 
#  monitor : psel =0  | paddr=204 | pwrite=1 | penable =0 | transfer_done=0  | pstrb =15  | pwdata =       194  | rdata =         0  | error =0 | time=1070
# apb_pkg.apb_reference.run  ref:fail : psel =0  | paddr=  0 | pwrite=0 | penable =0 | transfer_done=0  | pstrb = 0  | pwdata =         0  | rdata =         0  | error =0  | time =1070 
# scoreboard mon:fail : psel =0  | paddr=204 | pwrite=1 | penable =0 | transfer_done=0  | pstrb =15  | pwdata =       194  | rdata =         0  | error =0 | tine =1070 
# scoreboard ref:fail : psel =0  | paddr=  0 | pwrite=0 | penable =0 | transfer_done=0  | pstrb = 0  | pwdata =         0  | rdata =         0  | error =0 | time =1070
# ====================================================================================================================================================
# 
# driver: :  transfer=0 | wdata =        54 | addr = 64 | write_read =1  | strb = 4 | pready =1 | pslverr=1 | prdata =        29  | time=1090 
#  monitor : psel =0  | paddr=204 | pwrite=1 | penable =0 | transfer_done=0  | pstrb =15  | pwdata =       194  | rdata =         0  | error =0 | time=1090
# apb_pkg.apb_reference.run  ref:fail : psel =0  | paddr=  0 | pwrite=0 | penable =0 | transfer_done=0  | pstrb = 0  | pwdata =         0  | rdata =         0  | error =0  | time =1090 
# scoreboard mon:fail : psel =0  | paddr=204 | pwrite=1 | penable =0 | transfer_done=0  | pstrb =15  | pwdata =       194  | rdata =         0  | error =0 | tine =1090 
# scoreboard ref:fail : psel =0  | paddr=  0 | pwrite=0 | penable =0 | transfer_done=0  | pstrb = 0  | pwdata =         0  | rdata =         0  | error =0 | time =1090
# ====================================================================================================================================================
# 
# driver: :  transfer=0 | wdata =        26 | addr =193 | write_read =1  | strb =13 | pready =0 | pslverr=0 | prdata =        32  | time=1110 
#  monitor : psel =0  | paddr=204 | pwrite=1 | penable =0 | transfer_done=0  | pstrb =15  | pwdata =       194  | rdata =         0  | error =0 | time=1110
# apb_pkg.apb_reference.run  ref:fail : psel =0  | paddr=  0 | pwrite=0 | penable =0 | transfer_done=0  | pstrb = 0  | pwdata =         0  | rdata =         0  | error =0  | time =1110 
# scoreboard mon:fail : psel =0  | paddr=204 | pwrite=1 | penable =0 | transfer_done=0  | pstrb =15  | pwdata =       194  | rdata =         0  | error =0 | tine =1110 
# scoreboard ref:fail : psel =0  | paddr=  0 | pwrite=0 | penable =0 | transfer_done=0  | pstrb = 0  | pwdata =         0  | rdata =         0  | error =0 | time =1110
# ====================================================================================================================================================
# 
# driver: :  transfer=0 | wdata =       156 | addr =168 | write_read =1  | strb = 1 | pready =0 | pslverr=1 | prdata =       158  | time=1130 
#  monitor : psel =0  | paddr=204 | pwrite=1 | penable =0 | transfer_done=0  | pstrb =15  | pwdata =       194  | rdata =         0  | error =0 | time=1130
# apb_pkg.apb_reference.run  ref:fail : psel =0  | paddr=  0 | pwrite=0 | penable =0 | transfer_done=0  | pstrb = 0  | pwdata =         0  | rdata =         0  | error =0  | time =1130 
# scoreboard mon:fail : psel =0  | paddr=204 | pwrite=1 | penable =0 | transfer_done=0  | pstrb =15  | pwdata =       194  | rdata =         0  | error =0 | tine =1130 
# scoreboard ref:fail : psel =0  | paddr=  0 | pwrite=0 | penable =0 | transfer_done=0  | pstrb = 0  | pwdata =         0  | rdata =         0  | error =0 | time =1130
# ====================================================================================================================================================
# 
# driver: :  transfer=0 | wdata =       194 | addr =166 | write_read =1  | strb = 2 | pready =1 | pslverr=1 | prdata =        32  | time=1150 
#  monitor : psel =0  | paddr=204 | pwrite=1 | penable =0 | transfer_done=0  | pstrb =15  | pwdata =       194  | rdata =         0  | error =0 | time=1150
# apb_pkg.apb_reference.run  ref:fail : psel =0  | paddr=  0 | pwrite=0 | penable =0 | transfer_done=0  | pstrb = 0  | pwdata =         0  | rdata =         0  | error =0  | time =1150 
# scoreboard mon:fail : psel =0  | paddr=204 | pwrite=1 | penable =0 | transfer_done=0  | pstrb =15  | pwdata =       194  | rdata =         0  | error =0 | tine =1150 
# scoreboard ref:fail : psel =0  | paddr=  0 | pwrite=0 | penable =0 | transfer_done=0  | pstrb = 0  | pwdata =         0  | rdata =         0  | error =0 | time =1150
# ====================================================================================================================================================
# 
# driver: :  transfer=0 | wdata =       244 | addr = 16 | write_read =1  | strb = 5 | pready =0 | pslverr=1 | prdata =       184  | time=1170 
#  monitor : psel =0  | paddr=204 | pwrite=1 | penable =0 | transfer_done=0  | pstrb =15  | pwdata =       194  | rdata =         0  | error =0 | time=1170
# apb_pkg.apb_reference.run  ref:fail : psel =0  | paddr=  0 | pwrite=0 | penable =0 | transfer_done=0  | pstrb = 0  | pwdata =         0  | rdata =         0  | error =0  | time =1170 
# scoreboard mon:fail : psel =0  | paddr=204 | pwrite=1 | penable =0 | transfer_done=0  | pstrb =15  | pwdata =       194  | rdata =         0  | error =0 | tine =1170 
# scoreboard ref:fail : psel =0  | paddr=  0 | pwrite=0 | penable =0 | transfer_done=0  | pstrb = 0  | pwdata =         0  | rdata =         0  | error =0 | time =1170
# ====================================================================================================================================================
# 
# driver: :  transfer=0 | wdata =       148 | addr =  2 | write_read =1  | strb = 2 | pready =1 | pslverr=0 | prdata =        50  | time=1190 
#  monitor : psel =0  | paddr=204 | pwrite=1 | penable =0 | transfer_done=0  | pstrb =15  | pwdata =       194  | rdata =         0  | error =0 | time=1190
# apb_pkg.apb_reference.run  ref:fail : psel =0  | paddr=  0 | pwrite=0 | penable =0 | transfer_done=0  | pstrb = 0  | pwdata =         0  | rdata =         0  | error =0  | time =1190 
# scoreboard mon:fail : psel =0  | paddr=204 | pwrite=1 | penable =0 | transfer_done=0  | pstrb =15  | pwdata =       194  | rdata =         0  | error =0 | tine =1190 
# scoreboard ref:fail : psel =0  | paddr=  0 | pwrite=0 | penable =0 | transfer_done=0  | pstrb = 0  | pwdata =         0  | rdata =         0  | error =0 | time =1190
# ====================================================================================================================================================
# 
# driver: :  transfer=0 | wdata =       111 | addr =114 | write_read =1  | strb = 4 | pready =1 | pslverr=0 | prdata =        66  | time=1210 
#  monitor : psel =0  | paddr=204 | pwrite=1 | penable =0 | transfer_done=0  | pstrb =15  | pwdata =       194  | rdata =         0  | error =0 | time=1210
# apb_pkg.apb_reference.run  ref:fail : psel =0  | paddr=  0 | pwrite=0 | penable =0 | transfer_done=0  | pstrb = 0  | pwdata =         0  | rdata =         0  | error =0  | time =1210 
# scoreboard mon:fail : psel =0  | paddr=204 | pwrite=1 | penable =0 | transfer_done=0  | pstrb =15  | pwdata =       194  | rdata =         0  | error =0 | tine =1210 
# scoreboard ref:fail : psel =0  | paddr=  0 | pwrite=0 | penable =0 | transfer_done=0  | pstrb = 0  | pwdata =         0  | rdata =         0  | error =0 | time =1210
# ====================================================================================================================================================
# 
# driver: :  transfer=0 | wdata =         2 | addr =104 | write_read =1  | strb = 3 | pready =0 | pslverr=0 | prdata =       115  | time=1230 
#  monitor : psel =0  | paddr=204 | pwrite=1 | penable =0 | transfer_done=0  | pstrb =15  | pwdata =       194  | rdata =         0  | error =0 | time=1230
# apb_pkg.apb_reference.run  ref:fail : psel =0  | paddr=  0 | pwrite=0 | penable =0 | transfer_done=0  | pstrb = 0  | pwdata =         0  | rdata =         0  | error =0  | time =1230 
# scoreboard mon:fail : psel =0  | paddr=204 | pwrite=1 | penable =0 | transfer_done=0  | pstrb =15  | pwdata =       194  | rdata =         0  | error =0 | tine =1230 
# scoreboard ref:fail : psel =0  | paddr=  0 | pwrite=0 | penable =0 | transfer_done=0  | pstrb = 0  | pwdata =         0  | rdata =         0  | error =0 | time =1230
# ====================================================================================================================================================
# 
# driver: :  transfer=0 | wdata =       103 | addr =211 | write_read =1  | strb =12 | pready =0 | pslverr=1 | prdata =       100  | time=1250 
#  monitor : psel =0  | paddr=204 | pwrite=1 | penable =0 | transfer_done=0  | pstrb =15  | pwdata =       194  | rdata =         0  | error =0 | time=1250
# apb_pkg.apb_reference.run  ref:fail : psel =0  | paddr=  0 | pwrite=0 | penable =0 | transfer_done=0  | pstrb = 0  | pwdata =         0  | rdata =         0  | error =0  | time =1250 
# scoreboard mon:fail : psel =0  | paddr=204 | pwrite=1 | penable =0 | transfer_done=0  | pstrb =15  | pwdata =       194  | rdata =         0  | error =0 | tine =1250 
# scoreboard ref:fail : psel =0  | paddr=  0 | pwrite=0 | penable =0 | transfer_done=0  | pstrb = 0  | pwdata =         0  | rdata =         0  | error =0 | time =1250
# ====================================================================================================================================================
# 
# driver: :  transfer=0 | wdata =       247 | addr =178 | write_read =1  | strb = 6 | pready =1 | pslverr=0 | prdata =        74  | time=1270 
#  monitor : psel =0  | paddr=204 | pwrite=1 | penable =0 | transfer_done=0  | pstrb =15  | pwdata =       194  | rdata =         0  | error =0 | time=1270
# apb_pkg.apb_reference.run  ref:fail : psel =0  | paddr=  0 | pwrite=0 | penable =0 | transfer_done=0  | pstrb = 0  | pwdata =         0  | rdata =         0  | error =0  | time =1270 
# scoreboard mon:fail : psel =0  | paddr=204 | pwrite=1 | penable =0 | transfer_done=0  | pstrb =15  | pwdata =       194  | rdata =         0  | error =0 | tine =1270 
# scoreboard ref:fail : psel =0  | paddr=  0 | pwrite=0 | penable =0 | transfer_done=0  | pstrb = 0  | pwdata =         0  | rdata =         0  | error =0 | time =1270
# ====================================================================================================================================================
# 
# driver: :  transfer=0 | wdata =        43 | addr =219 | write_read =1  | strb = 6 | pready =1 | pslverr=0 | prdata =        11  | time=1290 
#  monitor : psel =0  | paddr=204 | pwrite=1 | penable =0 | transfer_done=0  | pstrb =15  | pwdata =       194  | rdata =         0  | error =0 | time=1290
# apb_pkg.apb_reference.run  ref:fail : psel =0  | paddr=  0 | pwrite=0 | penable =0 | transfer_done=0  | pstrb = 0  | pwdata =         0  | rdata =         0  | error =0  | time =1290 
# scoreboard mon:fail : psel =0  | paddr=204 | pwrite=1 | penable =0 | transfer_done=0  | pstrb =15  | pwdata =       194  | rdata =         0  | error =0 | tine =1290 
# scoreboard ref:fail : psel =0  | paddr=  0 | pwrite=0 | penable =0 | transfer_done=0  | pstrb = 0  | pwdata =         0  | rdata =         0  | error =0 | time =1290
# ====================================================================================================================================================
# 
# driver: :  transfer=0 | wdata =       194 | addr =107 | write_read =1  | strb = 3 | pready =0 | pslverr=0 | prdata =       157  | time=1310 
#  monitor : psel =0  | paddr=204 | pwrite=1 | penable =0 | transfer_done=0  | pstrb =15  | pwdata =       194  | rdata =         0  | error =0 | time=1310
# apb_pkg.apb_reference.run  ref:fail : psel =0  | paddr=  0 | pwrite=0 | penable =0 | transfer_done=0  | pstrb = 0  | pwdata =         0  | rdata =         0  | error =0  | time =1310 
# scoreboard mon:fail : psel =0  | paddr=204 | pwrite=1 | penable =0 | transfer_done=0  | pstrb =15  | pwdata =       194  | rdata =         0  | error =0 | tine =1310 
# scoreboard ref:fail : psel =0  | paddr=  0 | pwrite=0 | penable =0 | transfer_done=0  | pstrb = 0  | pwdata =         0  | rdata =         0  | error =0 | time =1310
# ====================================================================================================================================================
# 
# driver: :  transfer=0 | wdata =       196 | addr = 36 | write_read =1  | strb = 7 | pready =1 | pslverr=1 | prdata =       191  | time=1330 
#  monitor : psel =0  | paddr=204 | pwrite=1 | penable =0 | transfer_done=0  | pstrb =15  | pwdata =       194  | rdata =         0  | error =0 | time=1330
# apb_pkg.apb_reference.run  ref:fail : psel =0  | paddr=  0 | pwrite=0 | penable =0 | transfer_done=0  | pstrb = 0  | pwdata =         0  | rdata =         0  | error =0  | time =1330 
# scoreboard mon:fail : psel =0  | paddr=204 | pwrite=1 | penable =0 | transfer_done=0  | pstrb =15  | pwdata =       194  | rdata =         0  | error =0 | tine =1330 
# scoreboard ref:fail : psel =0  | paddr=  0 | pwrite=0 | penable =0 | transfer_done=0  | pstrb = 0  | pwdata =         0  | rdata =         0  | error =0 | time =1330
# ====================================================================================================================================================
# 
# driver: :  transfer=0 | wdata =       200 | addr = 91 | write_read =1  | strb = 3 | pready =1 | pslverr=1 | prdata =       172  | time=1350 
#  monitor : psel =0  | paddr=204 | pwrite=1 | penable =0 | transfer_done=0  | pstrb =15  | pwdata =       194  | rdata =         0  | error =0 | time=1350
# apb_pkg.apb_reference.run  ref:fail : psel =0  | paddr=  0 | pwrite=0 | penable =0 | transfer_done=0  | pstrb = 0  | pwdata =         0  | rdata =         0  | error =0  | time =1350 
# scoreboard mon:fail : psel =0  | paddr=204 | pwrite=1 | penable =0 | transfer_done=0  | pstrb =15  | pwdata =       194  | rdata =         0  | error =0 | tine =1350 
# scoreboard ref:fail : psel =0  | paddr=  0 | pwrite=0 | penable =0 | transfer_done=0  | pstrb = 0  | pwdata =         0  | rdata =         0  | error =0 | time =1350
# ====================================================================================================================================================
# 
# driver: :  transfer=0 | wdata =        17 | addr =129 | write_read =1  | strb = 2 | pready =0 | pslverr=0 | prdata =       191  | time=1370 
#  monitor : psel =0  | paddr=204 | pwrite=1 | penable =0 | transfer_done=0  | pstrb =15  | pwdata =       194  | rdata =         0  | error =0 | time=1370
# apb_pkg.apb_reference.run  ref:fail : psel =0  | paddr=  0 | pwrite=0 | penable =0 | transfer_done=0  | pstrb = 0  | pwdata =         0  | rdata =         0  | error =0  | time =1370 
# scoreboard mon:fail : psel =0  | paddr=204 | pwrite=1 | penable =0 | transfer_done=0  | pstrb =15  | pwdata =       194  | rdata =         0  | error =0 | tine =1370 
# scoreboard ref:fail : psel =0  | paddr=  0 | pwrite=0 | penable =0 | transfer_done=0  | pstrb = 0  | pwdata =         0  | rdata =         0  | error =0 | time =1370
# ====================================================================================================================================================
# 
# driver: :  transfer=0 | wdata =       236 | addr = 32 | write_read =1  | strb = 5 | pready =0 | pslverr=1 | prdata =        17  | time=1390 
#  monitor : psel =0  | paddr=204 | pwrite=1 | penable =0 | transfer_done=0  | pstrb =15  | pwdata =       194  | rdata =         0  | error =0 | time=1390
# apb_pkg.apb_reference.run  ref:fail : psel =0  | paddr=  0 | pwrite=0 | penable =0 | transfer_done=0  | pstrb = 0  | pwdata =         0  | rdata =         0  | error =0  | time =1390 
# scoreboard mon:fail : psel =0  | paddr=204 | pwrite=1 | penable =0 | transfer_done=0  | pstrb =15  | pwdata =       194  | rdata =         0  | error =0 | tine =1390 
# scoreboard ref:fail : psel =0  | paddr=  0 | pwrite=0 | penable =0 | transfer_done=0  | pstrb = 0  | pwdata =         0  | rdata =         0  | error =0 | time =1390
# ====================================================================================================================================================
# 
# driver: :  transfer=0 | wdata =       176 | addr =193 | write_read =1  | strb =13 | pready =0 | pslverr=1 | prdata =        60  | time=1410 
#  monitor : psel =0  | paddr=204 | pwrite=1 | penable =0 | transfer_done=0  | pstrb =15  | pwdata =       194  | rdata =         0  | error =0 | time=1410
# apb_pkg.apb_reference.run  ref:fail : psel =0  | paddr=  0 | pwrite=0 | penable =0 | transfer_done=0  | pstrb = 0  | pwdata =         0  | rdata =         0  | error =0  | time =1410 
# scoreboard mon:fail : psel =0  | paddr=204 | pwrite=1 | penable =0 | transfer_done=0  | pstrb =15  | pwdata =       194  | rdata =         0  | error =0 | tine =1410 
# scoreboard ref:fail : psel =0  | paddr=  0 | pwrite=0 | penable =0 | transfer_done=0  | pstrb = 0  | pwdata =         0  | rdata =         0  | error =0 | time =1410
# ====================================================================================================================================================
# 
# driver: :  transfer=0 | wdata =       194 | addr = 90 | write_read =1  | strb =14 | pready =1 | pslverr=0 | prdata =       126  | time=1430 
#  monitor : psel =0  | paddr=204 | pwrite=1 | penable =0 | transfer_done=0  | pstrb =15  | pwdata =       194  | rdata =         0  | error =0 | time=1430
# apb_pkg.apb_reference.run  ref:fail : psel =0  | paddr=  0 | pwrite=0 | penable =0 | transfer_done=0  | pstrb = 0  | pwdata =         0  | rdata =         0  | error =0  | time =1430 
# scoreboard mon:fail : psel =0  | paddr=204 | pwrite=1 | penable =0 | transfer_done=0  | pstrb =15  | pwdata =       194  | rdata =         0  | error =0 | tine =1430 
# scoreboard ref:fail : psel =0  | paddr=  0 | pwrite=0 | penable =0 | transfer_done=0  | pstrb = 0  | pwdata =         0  | rdata =         0  | error =0 | time =1430
# ====================================================================================================================================================
# 
# driver: :  transfer=0 | wdata =       213 | addr =  3 | write_read =1  | strb = 9 | pready =1 | pslverr=0 | prdata =       158  | time=1450 
#  monitor : psel =0  | paddr=204 | pwrite=1 | penable =0 | transfer_done=0  | pstrb =15  | pwdata =       194  | rdata =         0  | error =0 | time=1450
# apb_pkg.apb_reference.run  ref:fail : psel =0  | paddr=  0 | pwrite=0 | penable =0 | transfer_done=0  | pstrb = 0  | pwdata =         0  | rdata =         0  | error =0  | time =1450 
# scoreboard mon:fail : psel =0  | paddr=204 | pwrite=1 | penable =0 | transfer_done=0  | pstrb =15  | pwdata =       194  | rdata =         0  | error =0 | tine =1450 
# scoreboard ref:fail : psel =0  | paddr=  0 | pwrite=0 | penable =0 | transfer_done=0  | pstrb = 0  | pwdata =         0  | rdata =         0  | error =0 | time =1450
# ====================================================================================================================================================
# 
# driver: :  transfer=0 | wdata =       140 | addr = 41 | write_read =1  | strb = 0 | pready =1 | pslverr=0 | prdata =       215  | time=1470 
#  monitor : psel =0  | paddr=204 | pwrite=1 | penable =0 | transfer_done=0  | pstrb =15  | pwdata =       194  | rdata =         0  | error =0 | time=1470
# apb_pkg.apb_reference.run  ref:fail : psel =0  | paddr=  0 | pwrite=0 | penable =0 | transfer_done=0  | pstrb = 0  | pwdata =         0  | rdata =         0  | error =0  | time =1470 
# scoreboard mon:fail : psel =0  | paddr=204 | pwrite=1 | penable =0 | transfer_done=0  | pstrb =15  | pwdata =       194  | rdata =         0  | error =0 | tine =1470 
# scoreboard ref:fail : psel =0  | paddr=  0 | pwrite=0 | penable =0 | transfer_done=0  | pstrb = 0  | pwdata =         0  | rdata =         0  | error =0 | time =1470
# ====================================================================================================================================================
# 
# driver: :  transfer=0 | wdata =       165 | addr =167 | write_read =1  | strb = 4 | pready =1 | pslverr=0 | prdata =       128  | time=1490 
#  monitor : psel =0  | paddr=204 | pwrite=1 | penable =0 | transfer_done=0  | pstrb =15  | pwdata =       194  | rdata =         0  | error =0 | time=1490
# apb_pkg.apb_reference.run  ref:fail : psel =0  | paddr=  0 | pwrite=0 | penable =0 | transfer_done=0  | pstrb = 0  | pwdata =         0  | rdata =         0  | error =0  | time =1490 
# scoreboard mon:fail : psel =0  | paddr=204 | pwrite=1 | penable =0 | transfer_done=0  | pstrb =15  | pwdata =       194  | rdata =         0  | error =0 | tine =1490 
# scoreboard ref:fail : psel =0  | paddr=  0 | pwrite=0 | penable =0 | transfer_done=0  | pstrb = 0  | pwdata =         0  | rdata =         0  | error =0 | time =1490
# ====================================================================================================================================================
# 
# driver: :  transfer=0 | wdata =        22 | addr =179 | write_read =1  | strb = 1 | pready =1 | pslverr=0 | prdata =       134  | time=1510 
#  monitor : psel =0  | paddr=204 | pwrite=1 | penable =0 | transfer_done=0  | pstrb =15  | pwdata =       194  | rdata =         0  | error =0 | time=1510
# apb_pkg.apb_reference.run  ref:fail : psel =0  | paddr=  0 | pwrite=0 | penable =0 | transfer_done=0  | pstrb = 0  | pwdata =         0  | rdata =         0  | error =0  | time =1510 
# scoreboard mon:fail : psel =0  | paddr=204 | pwrite=1 | penable =0 | transfer_done=0  | pstrb =15  | pwdata =       194  | rdata =         0  | error =0 | tine =1510 
# scoreboard ref:fail : psel =0  | paddr=  0 | pwrite=0 | penable =0 | transfer_done=0  | pstrb = 0  | pwdata =         0  | rdata =         0  | error =0 | time =1510
# ====================================================================================================================================================
# 
# driver: :  transfer=0 | wdata =        36 | addr = 77 | write_read =1  | strb =11 | pready =1 | pslverr=1 | prdata =        77  | time=1530 
#  monitor : psel =0  | paddr=204 | pwrite=1 | penable =0 | transfer_done=0  | pstrb =15  | pwdata =       194  | rdata =         0  | error =0 | time=1530
# apb_pkg.apb_reference.run  ref:fail : psel =0  | paddr=  0 | pwrite=0 | penable =0 | transfer_done=0  | pstrb = 0  | pwdata =         0  | rdata =         0  | error =0  | time =1530 
# scoreboard mon:fail : psel =0  | paddr=204 | pwrite=1 | penable =0 | transfer_done=0  | pstrb =15  | pwdata =       194  | rdata =         0  | error =0 | tine =1530 
# scoreboard ref:fail : psel =0  | paddr=  0 | pwrite=0 | penable =0 | transfer_done=0  | pstrb = 0  | pwdata =         0  | rdata =         0  | error =0 | time =1530
# ====================================================================================================================================================
# 
# driver: :  transfer=0 | wdata =        42 | addr =171 | write_read =1  | strb = 1 | pready =1 | pslverr=0 | prdata =        62  | time=1550 
#  monitor : psel =0  | paddr=204 | pwrite=1 | penable =0 | transfer_done=0  | pstrb =15  | pwdata =       194  | rdata =         0  | error =0 | time=1550
# apb_pkg.apb_reference.run  ref:fail : psel =0  | paddr=  0 | pwrite=0 | penable =0 | transfer_done=0  | pstrb = 0  | pwdata =         0  | rdata =         0  | error =0  | time =1550 
# scoreboard mon:fail : psel =0  | paddr=204 | pwrite=1 | penable =0 | transfer_done=0  | pstrb =15  | pwdata =       194  | rdata =         0  | error =0 | tine =1550 
# scoreboard ref:fail : psel =0  | paddr=  0 | pwrite=0 | penable =0 | transfer_done=0  | pstrb = 0  | pwdata =         0  | rdata =         0  | error =0 | time =1550
# ====================================================================================================================================================
# 
# driver: :  transfer=0 | wdata =        37 | addr =188 | write_read =1  | strb =15 | pready =0 | pslverr=1 | prdata =       247  | time=1570 
#  monitor : psel =0  | paddr=204 | pwrite=1 | penable =0 | transfer_done=0  | pstrb =15  | pwdata =       194  | rdata =         0  | error =0 | time=1570
# apb_pkg.apb_reference.run  ref:fail : psel =0  | paddr=  0 | pwrite=0 | penable =0 | transfer_done=0  | pstrb = 0  | pwdata =         0  | rdata =         0  | error =0  | time =1570 
# scoreboard mon:fail : psel =0  | paddr=204 | pwrite=1 | penable =0 | transfer_done=0  | pstrb =15  | pwdata =       194  | rdata =         0  | error =0 | tine =1570 
# scoreboard ref:fail : psel =0  | paddr=  0 | pwrite=0 | penable =0 | transfer_done=0  | pstrb = 0  | pwdata =         0  | rdata =         0  | error =0 | time =1570
# ====================================================================================================================================================
# 
# driver: :  transfer=0 | wdata =       116 | addr = 23 | write_read =1  | strb = 9 | pready =1 | pslverr=1 | prdata =       252  | time=1590 
#  monitor : psel =0  | paddr=204 | pwrite=1 | penable =0 | transfer_done=0  | pstrb =15  | pwdata =       194  | rdata =         0  | error =0 | time=1590
# apb_pkg.apb_reference.run  ref:fail : psel =0  | paddr=  0 | pwrite=0 | penable =0 | transfer_done=0  | pstrb = 0  | pwdata =         0  | rdata =         0  | error =0  | time =1590 
# scoreboard mon:fail : psel =0  | paddr=204 | pwrite=1 | penable =0 | transfer_done=0  | pstrb =15  | pwdata =       194  | rdata =         0  | error =0 | tine =1590 
# scoreboard ref:fail : psel =0  | paddr=  0 | pwrite=0 | penable =0 | transfer_done=0  | pstrb = 0  | pwdata =         0  | rdata =         0  | error =0 | time =1590
# ====================================================================================================================================================
# 
# driver: :  transfer=0 | wdata =         9 | addr = 96 | write_read =1  | strb =10 | pready =1 | pslverr=0 | prdata =         6  | time=1610 
#  monitor : psel =0  | paddr=204 | pwrite=1 | penable =0 | transfer_done=0  | pstrb =15  | pwdata =       194  | rdata =         0  | error =0 | time=1610
# apb_pkg.apb_reference.run  ref:fail : psel =0  | paddr=  0 | pwrite=0 | penable =0 | transfer_done=0  | pstrb = 0  | pwdata =         0  | rdata =         0  | error =0  | time =1610 
# scoreboard mon:fail : psel =0  | paddr=204 | pwrite=1 | penable =0 | transfer_done=0  | pstrb =15  | pwdata =       194  | rdata =         0  | error =0 | tine =1610 
# scoreboard ref:fail : psel =0  | paddr=  0 | pwrite=0 | penable =0 | transfer_done=0  | pstrb = 0  | pwdata =         0  | rdata =         0  | error =0 | time =1610
# ====================================================================================================================================================
# 
# driver: :  transfer=0 | wdata =        90 | addr =191 | write_read =1  | strb = 9 | pready =0 | pslverr=1 | prdata =         3  | time=1630 
#  monitor : psel =0  | paddr=204 | pwrite=1 | penable =0 | transfer_done=0  | pstrb =15  | pwdata =       194  | rdata =         0  | error =0 | time=1630
# apb_pkg.apb_reference.run  ref:fail : psel =0  | paddr=  0 | pwrite=0 | penable =0 | transfer_done=0  | pstrb = 0  | pwdata =         0  | rdata =         0  | error =0  | time =1630 
# scoreboard mon:fail : psel =0  | paddr=204 | pwrite=1 | penable =0 | transfer_done=0  | pstrb =15  | pwdata =       194  | rdata =         0  | error =0 | tine =1630 
# scoreboard ref:fail : psel =0  | paddr=  0 | pwrite=0 | penable =0 | transfer_done=0  | pstrb = 0  | pwdata =         0  | rdata =         0  | error =0 | time =1630
# ====================================================================================================================================================
# 
# driver: :  transfer=0 | wdata =       159 | addr =245 | write_read =1  | strb = 4 | pready =0 | pslverr=0 | prdata =        38  | time=1650 
#  monitor : psel =0  | paddr=204 | pwrite=1 | penable =0 | transfer_done=0  | pstrb =15  | pwdata =       194  | rdata =         0  | error =0 | time=1650
# apb_pkg.apb_reference.run  ref:fail : psel =0  | paddr=  0 | pwrite=0 | penable =0 | transfer_done=0  | pstrb = 0  | pwdata =         0  | rdata =         0  | error =0  | time =1650 
# scoreboard mon:fail : psel =0  | paddr=204 | pwrite=1 | penable =0 | transfer_done=0  | pstrb =15  | pwdata =       194  | rdata =         0  | error =0 | tine =1650 
# scoreboard ref:fail : psel =0  | paddr=  0 | pwrite=0 | penable =0 | transfer_done=0  | pstrb = 0  | pwdata =         0  | rdata =         0  | error =0 | time =1650
# ====================================================================================================================================================
# 
# driver: :  transfer=0 | wdata =       188 | addr =210 | write_read =1  | strb = 0 | pready =0 | pslverr=1 | prdata =        47  | time=1670 
#  monitor : psel =0  | paddr=204 | pwrite=1 | penable =0 | transfer_done=0  | pstrb =15  | pwdata =       194  | rdata =         0  | error =0 | time=1670
# apb_pkg.apb_reference.run  ref:fail : psel =0  | paddr=  0 | pwrite=0 | penable =0 | transfer_done=0  | pstrb = 0  | pwdata =         0  | rdata =         0  | error =0  | time =1670 
# scoreboard mon:fail : psel =0  | paddr=204 | pwrite=1 | penable =0 | transfer_done=0  | pstrb =15  | pwdata =       194  | rdata =         0  | error =0 | tine =1670 
# scoreboard ref:fail : psel =0  | paddr=  0 | pwrite=0 | penable =0 | transfer_done=0  | pstrb = 0  | pwdata =         0  | rdata =         0  | error =0 | time =1670
# ====================================================================================================================================================
# 
